! Touchstone file exported from HFSS 2024.2.0
!        File:           C:/Users/peter/Documents/Ansoft/Maybell_cavity/CavityFromMaybell.aedt
!        Generated:      10:42:43 AM Jun 24, 2025
!        Design:         LossyTransitionC2R
!        Project:        CavityFromMaybell
!        Setup:          Setup1
!        Solution:       Sweep
!
! Variables:
!        $epsr = 5.5
!        $tandel = 0.003
!        a = 0.35in
!        d = 3.5in
!        f0_ideal = 15.3934197621267GHz
!        iris_radius = 0.0705in
!        iris_width = 0.04in
!        rwg_a = 0.622in
!        rwg_b = 0.311in
!        rwg_length = 0.3in
!
!Data is not renormalized
# GHz S RI
! Terminal data exported
! Port[1] = Port1Cyl
! Port[2] = Port2Rect
10                             -0.99971724      0.0033594228     9.0246894E-05    0.0026625575     9.0246894E-05    0.0026625575     -0.99935025      0.012688058      
10.09                          -0.99913517      -0.00036411279   9.5857559E-05    0.0031739537     9.5857559E-05    0.0031739537     -0.99929971      0.013743727      
10.18                          -0.99923618      0.0018877608     0.00010514187    0.0036062261     0.00010514187    0.0036062261     -0.99925432      0.014769271      
10.27                          -0.99935952      0.0042057781     0.00011494876    0.0039866801     0.00011494876    0.0039866801     -0.99921091      0.0157464        
10.36                          -0.99942763      0.0058929075     0.00012477414    0.0043312961     0.00012477414    0.0043312961     -0.99916844      0.01667544       
10.45                          -0.99944946      0.0070614684     0.00013455884    0.0046498995     0.00013455884    0.0046498995     -0.99912662      0.017561898      
10.54                          -0.99944222      0.0078976766     0.00014431913    0.004948827      0.00014431913    0.004948827      -0.99908539      0.018411935      
10.63                          -0.999419        0.0085400322     0.00015407607    0.005232344      0.00015407607    0.005232344      -0.99904473      0.019230992      
10.72                          -0.99938812      0.0090754996     0.00016384462    0.0055034332     0.00016384462    0.0055034332     -0.99900464      0.020023522      
10.81                          -0.99935449      0.0095544526     0.00017363446    0.0057642539     0.00017363446    0.0057642539     -0.9989651       0.020793078      
10.9                           -0.99932072      0.010004296      0.00018345225    0.0060164183     0.00018345225    0.0060164183     -0.99892608      0.021542488      
10.99                          -0.99928807      0.010438913      0.00019330311    0.0062611649     0.00019330311    0.0062611649     -0.99888753      0.022274024      
11.08                          -0.999257        0.010864623      0.00020319157    0.0064994695     0.00020319157    0.0064994695     -0.99884942      0.02298954       
11.17                          -0.99922754      0.011283771      0.00021312188    0.0067321185     0.00021312188    0.0067321185     -0.9988117       0.023690578      
11.26                          -0.9991995       0.011696795      0.00022309822    0.0069597588     0.00022309822    0.0069597588     -0.99877434      0.02437844       
11.35                          -0.99917265      0.012103376      0.00023312472    0.0071829316     0.00023312472    0.0071829316     -0.99873728      0.025054248      
11.44                          -0.99914671      0.012503035      0.00024320538    0.007402097      0.00024320538    0.007402097      -0.9987005       0.025718984      
11.53                          -0.99912148      0.012895409      0.00025334408    0.0076176512     0.00025334408    0.0076176512     -0.99866397      0.026373515      
11.62                          -0.99909676      0.01328036       0.00026354456    0.0078299393     0.00026354456    0.0078299393     -0.99862765      0.027018614      
11.71                          -0.99907244      0.013657976      0.00027381035    0.0080392645     0.00027381035    0.0080392645     -0.99859151      0.027654979      
11.8                           -0.99904842      0.014028542      0.00028414483    0.0082458958     0.00028414483    0.0082458958     -0.99855554      0.028283241      
11.89                          -0.99902466      0.014392486      0.00029455118    0.0084500733     0.00029455118    0.0084500733     -0.99851971      0.028903974      
11.98                          -0.99900111      0.014750323      0.00030503243    0.0086520124     0.00030503243    0.0086520124     -0.99848401      0.029517701      
12.07                          -0.99897778      0.015102614      0.00031559149    0.0088519076     0.00031559149    0.0088519076     -0.9984484       0.030124902      
12.16                          -0.99895466      0.015449919      0.0003262311     0.0090499353     0.0003262311     0.0090499353     -0.99841288      0.030726016      
12.25                          -0.99893177      0.015792779      0.00033695396    0.0092462561     0.00033695396    0.0092462561     -0.99837744      0.031321446      
12.34                          -0.99890911      0.016131688      0.00034776264    0.0094410164     0.00034776264    0.0094410164     -0.99834205      0.031911564      
12.43                          -0.9988867       0.016467086      0.00035865966    0.0096343508     0.00035865966    0.0096343508     -0.9983067       0.032496712      
12.52                          -0.99886453      0.016799354      0.00036964751    0.0098263827     0.00036964751    0.0098263827     -0.99827138      0.033077207      
12.61                          -0.99884261      0.01712881       0.00038072862    0.010017226      0.00038072862    0.010017226      -0.99823608      0.03365334       
12.7                           -0.99882092      0.017455717      0.00039190542    0.010206986      0.00039190542    0.010206986      -0.99820078      0.034225384      
12.79                          -0.99879947      0.017780285      0.0004031803     0.010395761      0.0004031803     0.010395761      -0.99816548      0.034793589      
12.88                          -0.99877823      0.018102681      0.00041455565    0.010583642      0.00041455565    0.010583642      -0.99813015      0.03535819       
12.97                          -0.9987572       0.018423033      0.00042603388    0.010770713      0.00042603388    0.010770713      -0.9980948       0.035919406      
13.06                          -0.99873633      0.018741444      0.00043761736    0.010957054      0.00043761736    0.010957054      -0.99805941      0.03647744       
13.15                          -0.99871563      0.019057992      0.0004493085     0.01114274       0.0004493085     0.01114274       -0.99802397      0.037032485      
13.24                          -0.99869505      0.019372743      0.00046110969    0.01132784       0.00046110969    0.01132784       -0.99798847      0.03758472       
13.33                          -0.99867458      0.019685753      0.00047302334    0.011512421      0.00047302334    0.011512421      -0.99795291      0.038134315      
13.42                          -0.9986542       0.019997078      0.00048505188    0.011696547      0.00048505188    0.011696547      -0.99791727      0.03868143       
13.51                          -0.99863388      0.020306774      0.00049719772    0.011880276      0.00049719772    0.011880276      -0.99788154      0.039226217      
13.6                           -0.99861361      0.0206149        0.00050946331    0.012063666      0.00050946331    0.012063666      -0.99784572      0.039768821      
13.69                          -0.99859337      0.020921524      0.00052185112    0.012246773      0.00052185112    0.012246773      -0.9978098       0.040309377      
13.78                          -0.99857316      0.021226721      0.00053436362    0.012429647      0.00053436362    0.012429647      -0.99777378      0.040848018      
13.87                          -0.99855295      0.021530575      0.0005470033     0.012612341      0.0005470033     0.012612341      -0.99773763      0.041384868      
13.96                          -0.99853274      0.021833179      0.0005597727     0.012794902      0.0005597727     0.012794902      -0.99770137      0.041920047      
14.05                          -0.99851253      0.022134634      0.00057267436    0.012977378      0.00057267436    0.012977378      -0.99766497      0.04245367       
14.14                          -0.99849231      0.022435045      0.00058571088    0.013159815      0.00058571088    0.013159815      -0.99762843      0.042985848      
14.23                          -0.99847208      0.022734527      0.00059888489    0.013342259      0.00059888489    0.013342259      -0.99759175      0.043516687      
14.32                          -0.99845185      0.023033194      0.00061219907    0.013524752      0.00061219907    0.013524752      -0.99755492      0.044046289      
14.41                          -0.99843161      0.023331165      0.00062565613    0.013707338      0.00062565613    0.013707338      -0.99751793      0.044574754      
14.5                           -0.99841138      0.023628555      0.00063925887    0.013890059      0.00063925887    0.013890059      -0.99748077      0.045102177      
14.59                          -0.99839114      0.023925481      0.00065301014    0.014072957      0.00065301014    0.014072957      -0.99744345      0.045628651      
14.68                          -0.9983709       0.024222052      0.00066691285    0.014256071      0.00066691285    0.014256071      -0.99740595      0.046154265      
14.77                          -0.99835066      0.024518374      0.00068097001    0.014439443      0.00068097001    0.014439443      -0.99736826      0.046679106      
14.86                          -0.99833044      0.024814544      0.0006951847     0.014623112      0.0006951847     0.014623112      -0.99733038      0.047203257      
14.95                          -0.99831021      0.025110653      0.00070956009    0.014807117      0.00070956009    0.014807117      -0.9972923       0.047726801      
15.04                          -0.99828999      0.025406781      0.00072409947    0.014991498      0.00072409947    0.014991498      -0.99725403      0.048249817      
15.13                          -0.99826976      0.025702999      0.00073880619    0.015176293      0.00073880619    0.015176293      -0.99721554      0.048772381      
15.22                          -0.99824952      0.025999369      0.00075368376    0.015361542      0.00075368376    0.015361542      -0.99717683      0.049294569      
15.31                          -0.99822927      0.026295943      0.00076873577    0.015547282      0.00076873577    0.015547282      -0.9971379       0.049816453      
15.4                           -0.998209        0.026592766      0.00078396597    0.015733553      0.00078396597    0.015733553      -0.99709874      0.050338105      
15.49                          -0.99818868      0.026889871      0.0007993782     0.015920393      0.0007993782     0.015920393      -0.99705934      0.050859594      
15.58                          -0.99816832      0.027187289      0.00081497648    0.01610784       0.00081497648    0.01610784       -0.9970197       0.051380989      
15.67                          -0.9981479       0.027485043      0.00083076496    0.016295936      0.00083076496    0.016295936      -0.99697981      0.051902355      
15.76                          -0.9981274       0.027783152      0.00084674793    0.016484718      0.00084674793    0.016484718      -0.99693966      0.05242376       
15.85                          -0.99810681      0.028081636      0.00086292987    0.016674228      0.00086292987    0.016674228      -0.99689925      0.052945267      
15.94                          -0.99808611      0.028380512      0.00087931543    0.016864506      0.00087931543    0.016864506      -0.99685857      0.05346694       
16.03                          -0.99806529      0.028679802      0.00089590944    0.017055594      0.00089590944    0.017055594      -0.9968176       0.053988845      
16.12                          -0.99804433      0.028979533      0.00091271696    0.017247535      0.00091271696    0.017247535      -0.99677635      0.054511044      
16.21                          -0.99802323      0.029279739      0.00092974326    0.017440375      0.00092974326    0.017440375      -0.99673481      0.0550336        
16.3                           -0.99800196      0.029580463      0.00094699386    0.017634158      0.00094699386    0.017634158      -0.99669296      0.055556579      
16.39                          -0.99798053      0.029881761      0.00096447455    0.017828933      0.00096447455    0.017828933      -0.9966508       0.056080044      
16.48                          -0.99795891      0.030183702      0.00098219143    0.018024751      0.00098219143    0.018024751      -0.99660833      0.056604063      
16.57                          -0.9979371       0.03048637       0.0010001509     0.018221663      0.0010001509     0.018221663      -0.99656552      0.0571287        
16.66                          -0.99791511      0.03078987       0.0010183599     0.018419727      0.0010183599     0.018419727      -0.99652239      0.057654027      
16.75                          -0.99789293      0.031094321      0.0010368255     0.018619         0.0010368255     0.018619         -0.9964789       0.058180113      
16.84                          -0.99787055      0.031399866      0.0010555556     0.018819548      0.0010555556     0.018819548      -0.99643507      0.058707033      
16.93                          -0.99784799      0.031706665      0.0010745584     0.019021436      0.0010745584     0.019021436      -0.99639087      0.059234862      
17.02                          -0.99782524      0.032014899      0.0010938429     0.019224739      0.0010938429     0.019224739      -0.99634629      0.05976368       
17.11                          -0.99780232      0.032324772      0.0011134188     0.019429535      0.0011134188     0.019429535      -0.99630133      0.060293572      
17.2                           -0.99777922      0.032636502      0.0011332964     0.019635909      0.0011332964     0.019635909      -0.99625598      0.060824624      
17.29                          -0.99775597      0.032950329      0.0011534872     0.019843954      0.0011534872     0.019843954      -0.99621021      0.061356931      
17.38                          -0.99773256      0.033266506      0.0011740037     0.02005377       0.0011740037     0.02005377       -0.99616402      0.061890589      
17.47                          -0.99770899      0.033585298      0.0011948596     0.020265469      0.0011948596     0.020265469      -0.99611739      0.062425703      
17.56                          -0.99768527      0.033906982      0.0012160699     0.02047917       0.0012160699     0.02047917       -0.99607031      0.062962382      
17.65                          -0.9976614       0.034231836      0.0012376512     0.020695005      0.0012376512     0.020695005      -0.99602276      0.063500744      
17.74                          -0.99763736      0.034560141      0.0012596219     0.020913119      0.0012596219     0.020913119      -0.99597472      0.064040914      
17.83                          -0.99761314      0.034892171      0.0012820023     0.021133672      0.0012820023     0.021133672      -0.99592617      0.064583023      
17.92                          -0.99758871      0.03522819       0.0013048149     0.021356837      0.0013048149     0.021356837      -0.99587709      0.065127213      
18.01                          -0.99756403      0.03556844       0.0013280848     0.021582808      0.0013280848     0.021582808      -0.99582745      0.065673635      
18.1                           -0.99753905      0.035913138      0.0013518397     0.021811797      0.0013518397     0.021811797      -0.99577724      0.066222449      
18.19                          -0.99751369      0.036262468      0.0013761106     0.022044038      0.0013761106     0.022044038      -0.99572641      0.066773825      
18.28                          -0.99748788      0.036616565      0.0014009316     0.022279789      0.0014009316     0.022279789      -0.99567495      0.067327945      
18.37                          -0.99746151      0.036975516      0.0014263408     0.022519334      0.0014263408     0.022519334      -0.9956228       0.067885003      
18.46                          -0.99743443      0.037339337      0.0014523805     0.022762988      0.0014523805     0.022762988      -0.99556995      0.068445204      
18.55                          -0.9974065       0.037707974      0.0014790974     0.023011097      0.0014790974     0.023011097      -0.99551633      0.069008767      
18.64                          -0.99737752      0.038081282      0.0015065434     0.023264045      0.0015065434     0.023264045      -0.99546192      0.069575925      
18.73                          -0.99734728      0.038459019      0.0015347757     0.023522257      0.0015347757     0.023522257      -0.99540665      0.070146924      
18.82                          -0.99731552      0.038840831      0.0015638576     0.023786202      0.0015638576     0.023786202      -0.99535047      0.070722025      
18.91                          -0.99728196      0.039226238      0.0015938586     0.024056398      0.0015938586     0.024056398      -0.99529333      0.071301505      
19                             -0.99724626      0.039614624      0.0016248552     0.024333421      0.0016248552     0.024333421      -0.99523514      0.071885657      
