! Variables:
!        a = 0.35in
!        d = 3.5in
!        f0_ideal = 15.3934197621267GHz
!        iris_radius = 0.0705in
!        iris_width = 0.04in
!        rwg_a = 0.622in
!        rwg_b = 0.311in
!        rwg_length = 0.3in
!
!Data is not renormalized
# GHz S MA
! Terminal data exported
! Port[1] = 1
! Port[2] = 2
15.375                         0.993256363791173 176.725092758013 0.00871183228730092 50.1185402496462 0.00871183228730092 50.1185402496464 0.993260125635904 176.722057764002 
15.37502                       0.993227603475869 176.724558546061 0.00873635734441214 50.0028367471446 0.00873635734441214 50.0028367471448 0.993231330761412 176.72152218362  
15.37504                       0.993198644312549 176.724028093907 0.00876098458502088 49.8864818134359 0.00876098458502089 49.886481813436  0.993202336748642 176.720990363359 
15.37506                       0.993169485023031 176.723501504077 0.00878571426276777 49.7694708983588 0.00878571426276777 49.7694708983589 0.993173142317007 176.720462405853 
15.37508                       0.993140124329334 176.722978880873 0.00881054662511918 49.6517994221687 0.00881054662511918 49.6517994221688 0.993143746186094 176.719938415512 
15.3751                        0.993110560953986 176.722460330399 0.00883548191315726 49.5334627755513 0.00883548191315727 49.5334627755514 0.993114147076001 176.71941849855  
15.37512                       0.993080793620363 176.721945960588 0.0088605203613686 49.4144563196284 0.00886052036136861 49.4144563196285 0.993084343707658 176.718902763013 
15.37514                       0.993050821053026 176.721435881224 0.00888566219743142 49.2947753859558 0.00888566219743142 49.2947753859559 0.993054334803163 176.7183913188   
15.37516                       0.993020641978074 176.720930203969 0.00891090764199065 49.1744152765645 0.00891090764199065 49.1744152765646 0.993024119086151 176.717884277691 
15.37518                       0.992990255123512 176.72042904239  0.00893625690843685 49.0533712639696 0.00893625690843685 49.0533712639697 0.992993695282144 176.717381753374 
15.3752                        0.99295965921962 176.719932511987 0.00896171020267484 48.9316385912116 0.00896171020267484 48.9316385912118 0.99296306211893 176.716883861471 
15.37522                       0.992928852999358 176.719440730215 0.00898726772287985 48.8092124719448 0.00898726772287985 48.8092124719449 0.99293221832697 176.716390719563 
15.37524                       0.992897835198743 176.718953816512 0.0090129296592736 48.6860880904129 0.0090129296592736 48.686088090413  0.992901162639773 176.715902447217 
15.37526                       0.99286660455728 176.718471892329 0.00903869619386713 48.5622606015705 0.00903869619386713 48.5622606015705 0.992869893794321 176.715419166016 
15.37528                       0.99283515981839 176.717995081152 0.00906456750021255 48.4377251311448 0.00906456750021256 48.4377251311449 0.992838410531506 176.714940999578 
15.3753                        0.992803499729836 176.717523508533 0.00909054374315073 48.3124767757035 0.00909054374315074 48.3124767757036 0.992806711596559 176.714468073593 
15.37532                       0.992771623044193 176.717057302114 0.00911662507854588 48.1865106027677 0.00911662507854588 48.1865106027678 0.992774795739505 176.714000515843 
15.37534                       0.992739528519303 176.716596591657 0.0091428116530237 48.0598216508935 0.00914281165302371 48.0598216508936 0.992742661715631 176.713538456232 
15.37536                       0.992707214918766 176.71614150907  0.00916910360369636 47.9324049298021 0.00916910360369636 47.9324049298021 0.99271030828598 176.713082026813 
15.37538                       0.992674681012431 176.715692188432 0.00919550105788499 47.8042554205035 0.00919550105788499 47.8042554205036 0.992677734217835 176.712631361815 
15.3754                        0.992641925576912 176.715248766026 0.00922200413284028 47.6753680754166 0.00922200413284029 47.6753680754167 0.992644938285237 176.712186597673 
15.37542                       0.992608947396115 176.714811380362 0.00924861293544925 47.5457378185376 0.00924861293544926 47.5457378185377 0.992611919269506 176.711747873052 
15.37544                       0.992575745261773 176.714380172208 0.00927532756194546 47.4153595455777 0.00927532756194547 47.4153595455778 0.992578675959797 176.711315328876 
15.37546                       0.992542317974012 176.713955284614 0.00930214809760534 47.2842281241507 0.00930214809760534 47.2842281241508 0.992545207153646 176.710889108359 
15.37548                       0.992508664341927 176.713536862942 0.00932907461644199 47.1523383939577 0.00932907461644199 47.1523383939578 0.992511511657552 176.710469357027 
15.3755                        0.992474783184164 176.713125054897 0.00935610718089657 47.0196851669672 0.00935610718089658 47.0196851669672 0.992477588287565 176.710056222751 
15.37552                       0.992440673329537 176.712720010547 0.00938324584151544 46.8862632276481 0.00938324584151544 46.8862632276481 0.9924434358699  176.709649855773 
15.37554                       0.992406333617647 176.712321882359 0.00941049063663039 46.7520673331716 0.00941049063663039 46.7520673331716 0.992409053241554 176.709250408734 
15.37556                       0.992371762899529 176.71193082522  0.00943784159202474 46.6170922136668 0.00943784159202474 46.6170922136669 0.992374439250961 176.708858036699 
15.37558                       0.992336960038314 176.711546996471 0.00946529872059635 46.481332572474  0.00946529872059635 46.481332572474  0.992339592758643 176.708472897191 
15.3756                        0.992301923909898 176.711170555929 0.00949286202201804 46.3447830863952 0.00949286202201804 46.3447830863952 0.992304512637897 176.708095150214 
15.37562                       0.992266653403655 176.710801665918 0.00952053148238323 46.2074384060011 0.00952053148238324 46.2074384060011 0.992269197775486 176.707724958279 
15.37564                       0.992231147423141 176.710440491297 0.00954830707385582 46.0692931559014 0.00954830707385582 46.0692931559015 0.992233647072365 176.707362486439 
15.37566                       0.992195404886837 176.710087199485 0.00957618875429797 45.9303419351071 0.00957618875429797 45.9303419351072 0.992197859444418 176.707007902309 
15.37568                       0.9921594247289  176.709741960488 0.00960417646691398 45.7905793172983 0.00960417646691399 45.7905793172984 0.992161833823196 176.706661376096 
15.3757                        0.992123205899946 176.70940494693  0.00963227013986007 45.6499998512446 0.00963227013986007 45.6499998512447 0.992125569156727 176.706323080629 
15.37572                       0.992086747367834 176.709076334075 0.00966046968587598 45.5085980611008 0.00966046968587599 45.5085980611008 0.992089064410278 176.70599319138  
15.37574                       0.9920500481185  176.708756299858 0.00968877500188243 45.3663684468579 0.00968877500188243 45.3663684468579 0.992052318567198 176.705671886496 
15.37576                       0.992013107156774 176.708445024909 0.00971718596859431 45.2233054846988 0.00971718596859432 45.2233054846989 0.992015330629747 176.705359346822 
15.37578                       0.991975923507265 176.708142692579 0.00974570245011154 45.0794036274517 0.00974570245011155 45.0794036274517 0.991978099619952 176.705055755931 
15.3758                        0.991938496215218 176.707849488966 0.00977432429351372 44.934657305007  0.00977432429351373 44.934657305007  0.991940624580503 176.704761300147 
15.37582                       0.991900824347431 176.707565602942 0.00980305132843932 44.7890609247991 0.00980305132843932 44.7890609247991 0.991902904575645 176.704476168569 
15.37584                       0.991862906993177 176.707291226179 0.00983188336666393 44.642608872276  0.00983188336666394 44.642608872276  0.991864938692107 176.704200553102 
15.37586                       0.991824743265165 176.707026553169 0.00986082020166291 44.4952955114351 0.00986082020166291 44.4952955114351 0.991826726040067 176.703934648476 
15.37588                       0.991786332300491 176.706771781253 0.00988986160818271 44.3471151852981 0.00988986160818271 44.3471151852981 0.991788265754104 176.703678652274 
15.3759                        0.991747673261646 176.706527110646 0.00991900734179052 44.1980622164838 0.00991900734179052 44.1980622164839 0.991749556994208 176.703432764957 
15.37592                       0.991708765337541 176.706292744454 0.00994825713842031 44.0481309077842 0.00994825713842032 44.0481309077843 0.991710598946796 176.703197189881 
15.37594                       0.99166960774454 176.706068888703 0.00997761071391282 43.8973155427585 0.00997761071391282 43.8973155427585 0.991671390825763 176.70297213333  
15.37596                       0.991630199727537 176.705855752361 0.0100070677635522 43.7456103863299 0.0100070677635522 43.7456103863299 0.991631931873545 176.702757804529 
15.37598                       0.991590540561047 176.705653547357 0.0100366279615867 43.5930096854536 0.0100366279615867 43.5930096854537 0.991592221362224 176.702554415673 
15.376                         0.991550629550322 176.705462488602 0.0100662909607518 43.4395076697568 0.0100662909607518 43.4395076697569 0.991552258594634 176.702362181942 
15.37602                       0.991510466032499 176.705282794015 0.0100960563917778 43.2850985522492 0.0100960563917778 43.2850985522493 0.991512042905519 176.702181321529 
15.37604                       0.991470049377774 176.705114684534 0.0101259238628935 43.1297765300413 0.0101259238628935 43.1297765300413 0.991471573662703 176.702012055652 
15.37606                       0.991429378990592 176.704958384145 0.0101558929593269 42.9735357850683 0.0101558929593269 42.9735357850683 0.991430850268284 176.701854608579 
15.37608                       0.991388454310869 176.704814119892 0.0101859632427888 42.8163704848881 0.0101859632427888 42.8163704848881 0.991389872159861 176.701709207645 
15.3761                        0.991347274815254 176.704682121899 0.0102161342509608 42.6582747834538 0.0102161342509608 42.6582747834538 0.991348638811784 176.701576083266 
15.37612                       0.991305840018385 176.704562623384 0.0102464054969658 42.4992428219611 0.0102464054969658 42.4992428219611 0.991307149736436 176.70145546896  
15.37614                       0.991264149474218 176.704455860677 0.010276776468836 42.3392687297049 0.010276776468836 42.3392687297049 0.991265404485532 176.70134760136  
15.37616                       0.991222202777337 176.704362073232 0.0103072466289776 42.1783466249454 0.0103072466289776 42.1783466249454 0.991223402651458 176.70125272023  
15.37618                       0.991179999564322 176.704281503643 0.0103378154136199 42.0164706158441 0.0103378154136199 42.016470615844  0.99118114386863 176.701171068478 
15.3762                        0.991137539515146 176.704214397653 0.0103684822322625 41.8536348014118 0.0103684822322625 41.8536348014118 0.991138627814888 176.701102892167 
15.37622                       0.991094822354565 176.70416100417  0.0103992464671181 41.6898332724666 0.0103992464671181 41.6898332724666 0.991095854212899 176.70104844053  
15.37624                       0.991051847853587 176.704121575273 0.0104301074725403 41.5250601126722 0.0104301074725403 41.5250601126722 0.991052822831614 176.701007965975 
15.37626                       0.99100861583093 176.704096366221 0.0104610645744547 41.3593093995537 0.0104610645744548 41.3593093995537 0.991009533487744 176.700981724097 
15.37628                       0.990965126154525 176.704085635462 0.0104921170697727 41.1925752056032 0.0104921170697727 41.1925752056032 0.990965986047252 176.700969973687 
15.3763                        0.990921378743045 176.704089644639 0.0105232642258102 41.0248515993551 0.0105232642258102 41.0248515993551 0.990922180426888 176.700972976733 
15.37632                       0.990877373567471 176.704108658593 0.0105545052796836 40.8561326465895 0.0105545052796836 40.8561326465895 0.990878116595755 176.700990998429 
15.37634                       0.990833110652657 176.704142945368 0.0105858394377236 40.6864124114343 0.0105858394377236 40.6864124114343 0.99083379457689 176.701024307175 
15.37636                       0.990788590078976 176.704192776209 0.0106172658748537 40.5156849576622 0.0106172658748537 40.5156849576622 0.990789214448886 176.701073174582 
15.37638                       0.990743811983935 176.704258425565 0.010648783733987 40.343944349894  0.010648783733987 40.343944349894  0.990744376347539 176.701137875467 
15.3764                        0.990698776563867 176.704340171085 0.0106803921254074 40.1711846548894 0.0106803921254074 40.1711846548894 0.990699280467514 176.701218687854 
15.37642                       0.990653484075632 176.704438293616 0.0107120901261354 39.9973999429285 0.0107120901261354 39.9973999429285 0.990653927064068 176.70131589297  
15.37644                       0.990607934838332 176.704553077195 0.0107438767793126 39.8225842890987 0.0107438767793126 39.8225842890987 0.990608316454762 176.701429775238 
15.37646                       0.990562129235092 176.704684809042 0.0107757510935515 39.6467317747827 0.0107757510935515 39.6467317747827 0.990562449021242 176.701560622272 
15.37648                       0.99051606771483 176.704833779552 0.0108077120423066 39.4698364890399 0.0108077120423066 39.4698364890399 0.990516325211013 176.701708724862 
15.3765                        0.99046975079409 176.705000282278 0.0108397585632175 39.2918925301538 0.0108397585632175 39.2918925301538 0.990469945539271 176.701874376969 
15.37652                       0.990423179058871 176.705184613925 0.0108718895574664 39.1128940071158 0.0108718895574664 39.1128940071157 0.990423310590743 176.702057875704 
15.37654                       0.990376353166507 176.705387074325 0.0109041038891204 38.9328350412121 0.0109041038891204 38.9328350412121 0.990376421021559 176.702259521318 
15.37656                       0.99032927384756 176.705607966425 0.0109364003844732 38.7517097676289 0.0109364003844732 38.7517097676288 0.990329277561165 176.702479617176 
15.37658                       0.99028194190776 176.70584759626  0.0109687778313789 38.5695123371243 0.0109687778313789 38.5695123371243 0.990281881014239 176.702718469745 
15.3766                        0.990234358229944 176.706106272936 0.0110012349785848 38.3862369177299 0.0110012349785848 38.3862369177298 0.990234232262659 176.70297638856  
15.37662                       0.990186523776048 176.706384308595 0.0110337705350651 38.2018776964709 0.0110337705350651 38.2018776964709 0.990186332267479 176.703253686207 
15.37664                       0.990138439589105 176.706682018394 0.0110663831693419 38.0164288811883 0.0110663831693419 38.0164288811883 0.990138182070941 176.703550678286 
15.37666                       0.990090106795274 176.706999720468 0.0110990715088156 37.829884702334  0.0110990715088156 37.829884702334  0.990089782798506 176.703867683385 
15.37668                       0.990041526605912 176.707337735897 0.0111318341390756 37.6422394149162 0.0111318341390756 37.6422394149162 0.990041135660922 176.70420502304  
15.3767                        0.98999270031963 176.707696388667 0.0111646696032347 37.4534873003393 0.0111646696032347 37.4534873003393 0.98999224195629 176.704563021703 
15.37672                       0.989943629324419 176.708076005631 0.0111975764012305 37.2636226684759 0.0111975764012305 37.2636226684759 0.989943103072187 176.704942006695 
15.37674                       0.989894315099758 176.708476916462 0.0112305529891593 37.0726398595927 0.0112305529891593 37.0726398595926 0.989893720487789 176.705342308166 
15.37676                       0.989844759218777 176.708899453608 0.0112635977785763 36.8805332465107 0.0112635977785763 36.8805332465107 0.989844095776019 176.705764259045 
15.37678                       0.989794963350414 176.709343952239 0.0112967091358234 36.6872972366607 0.0112967091358234 36.6872972366607 0.989794230605724 176.70620819499  
15.3768                        0.989744929261609 176.709810750194 0.0113298853813382 36.4929262742932 0.0113298853813382 36.4929262742932 0.989744126743864 176.706674454335 
15.37682                       0.989694658819509 176.710300187924 0.0113631247889764 36.2974148426638 0.0113631247889765 36.2974148426638 0.989693786057722 176.707163378028 
15.37684                       0.989644153993697 176.710812608425 0.0113964255853269 36.1007574663278 0.0113964255853269 36.1007574663278 0.989643210517136 176.707675309573 
15.37686                       0.989593416858433 176.711348357182 0.011429785949031 35.9029487134592 0.011429785949031 35.9029487134591 0.989592402196742 176.708210594965 
15.37688                       0.989542449594905 176.711907782088 0.0114632040101102 35.7039831981958 0.0114632040101103 35.7039831981957 0.989541363278235 176.708769582617 
15.3769                        0.989491254493509 176.712491233381 0.0114966778492863 35.5038555830947 0.0114966778492863 35.5038555830946 0.989490096052644 176.709352623288 
15.37692                       0.98943983395613 176.71309906356  0.0115302054973163 35.3025605815712 0.0115302054973163 35.3025605815712 0.989438602922618 176.709960070006 
15.37694                       0.989388190498426 176.713731627305 0.0115637849343219 35.100092960449  0.011563784934322 35.100092960449  0.989386886404727 176.710592277986 
15.37696                       0.989336326752157 176.714389281392 0.0115974140891292 34.8964475425374 0.0115974140891292 34.8964475425374 0.989334949131773 176.711249604544 
15.37698                       0.989284245467472 176.7150723846   0.0116310908386163 34.6916192092342 0.0116310908386163 34.6916192092341 0.989282793855095 176.711932409007 
15.377                         0.989231949515242 176.71578129762  0.0116648130070597 34.4856029032422 0.0116648130070597 34.4856029032422 0.989230423446904 176.712641052614 
15.37702                       0.989179441889381 176.716516382949 0.0116985783654976 34.2783936312681 0.0116985783654977 34.2783936312681 0.989177840902604 176.713375898422 
15.37704                       0.989126725709164 176.717278004793 0.011732384631092 34.0699864668357 0.011732384631092 34.0699864668356 0.989125049343119 176.714137311198 
15.37706                       0.989073804221563 176.718066528952 0.0117662294665032 33.8603765531252 0.0117662294665032 33.8603765531251 0.989072052017226 176.71492565731  
15.37708                       0.989020680803561 176.718882322709 0.011800110479279 33.6495591058387 0.011800110479279 33.6495591058387 0.989018852303882 176.715741304614 
15.3771                        0.988967358964476 176.719725754709 0.0118340252212449 33.4375294161722 0.0118340252212449 33.4375294161722 0.988965453714542 176.716584622331 
15.37712                       0.988913842348277 176.720597194835 0.0118679711879132 33.2242828537939 0.0118679711879132 33.2242828537939 0.988911859895486 176.717455980929 
15.37714                       0.988860134735888 176.72149701408  0.0119019458178944 33.0098148699406 0.0119019458178944 33.0098148699405 0.988858074630125 176.718355751987 
15.37716                       0.988806240047474 176.722425584408 0.0119359464923399 32.7941210004459 0.0119359464923399 32.7941210004459 0.98880410184129 176.719284308064 
15.37718                       0.988752162344722 176.723383278621 0.0119699705343819 32.5771968689312 0.0119699705343819 32.5771968689312 0.988749945593521 176.720242022555 
15.3772                        0.988697905833113 176.724370470203 0.0120040152085913 32.3590381900288 0.0120040152085913 32.3590381900288 0.988695610095333 176.721229269549 
15.37722                       0.988643474864147 176.72538753318  0.0120380777204614 32.1396407725931 0.0120380777204614 32.1396407725931 0.988641099701458 176.722246423675 
