! Variables:
!        $epsr = 5.5
!        $tandel = 0.003
!        a = 0.35in
!        d = 3.5in
!        epsr = 1
!        f0_ideal = 15.3934197621267GHz
!        iris_radius = 0.0705in
!        iris_width = 0.04in
!        rwg_a = 0.622in
!        rwg_b = 0.311in
!        rwg_length = 0.3in
!        tandel = 0
!        z1 = 0.5in
!        z2 = 0.55in
!
!Data is not renormalized
# GHz S MA
! Terminal data exported
! Port[1] = 1
! Port[2] = 2
15.33                          0.996489232538344 176.899594318636 0.00685413800711473 61.1157242048284 0.00685413800711474 61.1157242048284 0.994018353866235 176.599749300645 
15.33004                       0.996473434089515 176.898818792511 0.00688206656168467 61.010366331126  0.00688206656168468 61.0103663311259 0.99398342645592 176.59804713924  
15.33008                       0.996457458736562 176.898040456924 0.0069101977589385 60.9041557223502 0.00691019775893851 60.9041557223502 0.993948108411445 176.596338690716 
15.33012                       0.996441304053114 176.897259334716 0.00693853348881033 60.7970827176309 0.00693853348881034 60.7970827176308 0.993912394374226 176.594624004288 
15.33016                       0.996424967576319 176.896475450156 0.0069670756585119 60.6891375225901 0.00696707565851191 60.68913752259   0.993876278905005 176.592903132314 
15.3302                        0.996408446806336 176.895688828993 0.00699582619255643 60.5803102073194 0.00699582619255643 60.5803102073194 0.993839756482719 176.5911761304   
15.33024                       0.996391739205823 176.8948994985   0.00702478703277345 60.4705907043339 0.00702478703277346 60.4705907043339 0.993802821503367 176.589443057516 
15.33028                       0.996374842199426 176.894107487532 0.00705396013831795 60.3599688064867 0.00705396013831795 60.3599688064867 0.993765468278863 176.58770397611  
15.33032                       0.996357753173261 176.893312826579 0.00708334748566714 60.248434164871  0.00708334748566714 60.2484341648709 0.993727691035903 176.585958952228 
15.33036                       0.996340469474403 176.892515547821 0.00711295106860987 60.135976286684  0.00711295106860988 60.1359762866839 0.993689483914808 176.584208055641 
15.3304                        0.996322988410351 176.891715685186 0.00714277289822906 60.0225845330546 0.00714277289822906 60.0225845330545 0.993650840968372 176.582451359966 
15.33044                       0.996305307248535 176.890913274409 0.00717281500286691 59.9082481168666 0.00717281500286691 59.9082481168665 0.99361175616071 176.580688942802 
15.33048                       0.99628742321577 176.890108353093 0.00720307942808781 59.7929561005229 0.00720307942808781 59.7929561005229 0.993572223366105 176.578920885867 
15.33052                       0.996269333497755 176.889300960774 0.00723356823662613 59.6766973936937 0.00723356823662613 59.6766973936936 0.993532236367842 176.577147275134 
15.33056                       0.996251035238539 176.888491138982 0.00726428350831833 59.559460751052  0.00726428350831833 59.5594607510519 0.993491788857066 176.575368200976 
15.3306                        0.996232525540017 176.887678931313 0.00729522734003042 59.4412347699488 0.00729522734003042 59.4412347699487 0.993450874431616 176.573583758318 
15.33064                       0.996213801461396 176.886864383495 0.00732640184556848 59.3220078880754 0.00732640184556848 59.3220078880753 0.993409486594878 176.571794046786 
15.33068                       0.996194860018695 176.88604754346  0.00735780915557015 59.2017683811157 0.00735780915557015 59.2017683811156 0.993367618754639 176.56999917087  
15.33072                       0.99617569818422 176.885228461418 0.00738945141739704 59.0805043603122 0.00738945141739704 59.0805043603121 0.993325264221938 176.568199240083 
15.33076                       0.99615631288606 176.884407189932 0.00742133079499126 58.9582037700816 0.00742133079499126 58.9582037700815 0.993282416209942 176.566394369132 
15.3308                        0.996136701007588 176.883583783999 0.00745344946873292 58.8348543855388 0.00745344946873292 58.8348543855387 0.993239067832814 176.564584678091 
15.33084                       0.996116859386944 176.882758301125 0.00748580963527276 58.7104438100219 0.00748580963527275 58.7104438100218 0.993195212104589 176.562770292578 
15.33088                       0.996096784816552 176.881930801414 0.00751841350735159 58.5849594725745 0.00751841350735158 58.5849594725744 0.993150841938079 176.560951343943 
15.33092                       0.99607647404263 176.881101347649 0.00755126331359656 58.4583886254184 0.00755126331359656 58.4583886254184 0.99310595014378 176.559127969455 
15.33096                       0.996055923764698 176.880270005385 0.00758436129830443 58.3307183413744 0.00758436129830442 58.3307183413744 0.993060529428784 176.5573003125   
15.331                         0.996035130635117 176.879436843033 0.00761770972119643 58.2019355112886 0.00761770972119642 58.2019355112885 0.993014572395739 176.555468522781 
15.33104                       0.996014091258616 176.878601931963 0.00765131085716195 58.0720268413939 0.00765131085716194 58.0720268413938 0.992968071541791 176.553632756529 
15.33108                       0.995992802191837 176.877765346589 0.0076851669959716 57.9409788506783 0.00768516699597158 57.9409788506782 0.992921019257584 176.551793176716 
15.33112                       0.995971259942896 176.876927164481 0.00771928044197379 57.8087778682023 0.00771928044197378 57.8087778682022 0.992873407826251 176.549949953275 
15.33116                       0.995949460970949 176.876087466456 0.00775365351376205 57.6754100304107 0.00775365351376203 57.6754100304107 0.99282522942246 176.548103263331 
15.3312                        0.995927401685772 176.875246336694 0.00778828854382001 57.5408612784095 0.00778828854382 57.5408612784094 0.992776476111471 176.546253291434 
15.33124                       0.995905078447365 176.874403862836 0.0078231878781393 57.4051173552208 0.00782318787813929 57.4051173552207 0.992727139848236 176.544400229799 
15.33128                       0.995882487565558 176.873560136106 0.00785835387580904 57.2681638030189 0.00785835387580902 57.2681638030188 0.992677212476528 176.54254427856  
15.33132                       0.995859625299646 176.872715251419 0.00789378890857953 57.1299859603322 0.00789378890857951 57.1299859603321 0.992626685728118 176.540685646023 
15.33136                       0.995836487858046 176.871869307504 0.00792949536039052 56.9905689592444 0.0079294953603905 56.9905689592444 0.99257555122198 176.538824548932 
15.3314                        0.995813071397956 176.871022407024 0.00796547562687321 56.8498977225562 0.0079654756268732 56.8498977225561 0.992523800463553 176.53696121274  
15.33144                       0.995789372025058 176.870174656702 0.00800173211481796 56.7079569609319 0.00800173211481795 56.7079569609318 0.992471424844049 176.53509587189  
15.33148                       0.995765385793235 176.869326167454 0.00803826724160289 56.5647311700494 0.00803826724160287 56.5647311700494 0.992418415639821 176.533228770107 
15.33152                       0.995741108704322 176.868477054517 0.00807508343459282 56.4202046277076 0.0080750834345928 56.4202046277075 0.992364764011777 176.53136016069  
15.33156                       0.995716536707867 176.867627437589 0.00811218313050078 56.2743613909198 0.00811218313050076 56.2743613909198 0.992310461004859 176.529490306821 
15.3316                        0.995691665700948 176.866777440971 0.00814956877470266 56.127185293025  0.00814956877470265 56.1271852930249 0.992255497547604 176.527619481882 
15.33164                       0.995666491528005 176.865927193712 0.00818724282052123 55.9786599407464 0.00818724282052121 55.9786599407463 0.992199864451755 176.525747969773 
15.33168                       0.995641009980709 176.865076829757 0.00822520772846295 55.8287687112599 0.00822520772846293 55.8287687112598 0.992143552411961 176.523876065254 
15.33172                       0.995615216797879 176.864226488101 0.00826346596540566 55.6774947492732 0.00826346596540564 55.6774947492731 0.992086552005565 176.52200407428  
15.33176                       0.995589107665427 176.863376312951 0.0083020200037504 55.5248209640576 0.00830202000375038 55.5248209640576 0.992028853692461 176.520132314362 
15.3318                        0.995562678216352 176.862526453881 0.00834087232051538 55.3707300265157 0.00834087232051535 55.3707300265156 0.991970447815068 176.518261114924 
15.33184                       0.99553592403078 176.861677066009 0.00838002539638791 55.2152043662142 0.00838002539638789 55.2152043662141 0.991911324598387 176.51639081768  
15.33188                       0.99550884063605 176.86082831016  0.0084194817147141 55.0582261684583 0.00841948171471408 55.0582261684582 0.99185147415018 176.514521777017 
15.33192                       0.995481423506856 176.859980353047 0.00845924376044565 54.8997773713239 0.00845924376044563 54.8997773713238 0.991790886461244 176.512654360391 
15.33196                       0.995453668065437 176.859133367452 0.00849931401901989 54.7398396627356 0.00849931401901986 54.7398396627356 0.991729551405834 176.51078894873  
15.332                         0.995425569681834 176.858287532415 0.00853969497518919 54.5783944775226 0.00853969497518917 54.5783944775225 0.991667458742175 176.508925936858 
15.33204                       0.995397123674207 176.857443033419 0.00858038911177866 54.4154229945265 0.00858038911177864 54.4154229945264 0.991604598113168 176.507065733915 
15.33208                       0.995368325309218 176.856600062594 0.00862139890839089 54.2509061336833 0.00862139890839087 54.2509061336832 0.991540959047185 176.505208763804 
15.33212                       0.995339169802475 176.855758818914 0.0086627268400391 54.0848245531448 0.00866272684003908 54.0848245531447 0.991476530959047 176.503355465639 
15.33216                       0.99530965231907 176.854919508407 0.00870437537570392 53.9171586464527 0.0087043753757039 53.9171586464526 0.991411303151178 176.501506294215 
15.3322                        0.995279767974172 176.854082344367 0.0087463469768385 53.7478885396594 0.00874634697683847 53.7478885396594 0.991345264814891 176.499661720478 
15.33224                       0.995249511833736 176.853247547572 0.0087886440957704 53.5769940885955 0.00878864409577038 53.5769940885954 0.991278405031912 176.497822232021 
15.33228                       0.995218878915255 176.852415346509 0.00883126917405238 53.404454876067  0.00883126917405235 53.4044548760669 0.991210712776052 176.495988333579 
15.33232                       0.995187864188653 176.851585977603 0.00887422464071259 53.2302502091737 0.00887422464071257 53.2302502091736 0.991142176915112 176.494160547553 
15.33236                       0.995156462577241 176.850759685452 0.00891751291043543 53.0543591166165 0.00891751291043541 53.0543591166165 0.991072786212995 176.492339414532 
15.3324                        0.995124668958796 176.849936723071 0.0089611363816441 52.8767603461019 0.00896113638164407 52.8767603461018 0.991002529332052 176.490525493835 
15.33244                       0.995092478166744 176.849117352134 0.00900509743450105 52.6974323617701 0.00900509743450102 52.69743236177   0.990931394835662 176.48871936407  
15.33248                       0.995059884991454 176.848301843233 0.00904939842880798 52.5163533417153 0.00904939842880795 52.5163533417153 0.990859371191082 176.486921623698 
15.33252                       0.995026884181669 176.847490476134 0.0090940417018121 52.3335011755608 0.00909404170181208 52.3335011755607 0.990786446772561 176.485132891622 
15.33256                       0.994993470446042 176.846683540042 0.0091390295659103 52.1488534621153 0.00913902956591027 52.1488534621153 0.990712609864724 176.483353807778 
15.3326                        0.99495963845484 176.845881333876 0.00918436430624765 51.9623875071185 0.00918436430624762 51.9623875071185 0.990637848666283 176.481585033747 
15.33264                       0.994925382841753 176.845084166543 0.00923004817821102 51.7740803210625 0.009230048178211 51.7740803210624 0.990562151294032 176.479827253382 
15.33268                       0.99489069820588 176.844292357224 0.00927608340480344 51.5839086171404 0.00927608340480341 51.5839086171404 0.990485505787206 176.478081173446 
15.33272                       0.994855579113873 176.843506235662 0.00932247217391054 51.3918488092683 0.00932247217391052 51.3918488092682 0.990407900112155 176.476347524264 
15.33276                       0.994820020102223 176.842726142461 0.00936921663543445 51.1978770102717 0.00936921663543443 51.1978770102717 0.99032932216742 176.474627060393 
15.3328                        0.994784015679743 176.841952429386 0.00941631889831657 51.0019690301418 0.00941631889831654 51.0019690301418 0.990249759789156 176.472920561302 
15.33284                       0.994747560330228 176.841185459676 0.009463781027419 50.804100374476  0.00946378102741898 50.804100374476  0.990169200756994 176.471228832068 
15.33288                       0.994710648515297 176.840425608352 0.00951160504028133 50.6042462430275 0.00951160504028131 50.6042462430274 0.990087632800303 176.46955270409  
15.33292                       0.994673274677453 176.839673262544 0.00955979290372993 50.4023815284481 0.0095597929037299 50.4023815284481 0.990005043604915 176.467893035807 
15.33296                       0.994635433243337 176.838928821813 0.00960834653035855 50.1984808151403 0.00960834653035852 50.1984808151403 0.989921420820283 176.466250713444 
15.333                         0.994597118627208 176.83819269849  0.00965726777483985 49.992518378377  0.00965726777483983 49.9925183783769 0.989836752067186 176.464626651757 
15.33304                       0.994558325234666 176.837465318007 0.00970655843010382 49.7844681835318 0.00970655843010379 49.7844681835318 0.989751024945891 176.463021794804 
15.33308                       0.994519047466594 176.836747119247 0.00975622022335274 49.5743038855388 0.00975622022335271 49.5743038855388 0.989664227044873 176.46143711672  
15.33312                       0.994479279723377 176.836038554892 0.00980625481190867 49.3619988285916 0.00980625481190865 49.3619988285916 0.989576345950097 176.459873622511 
15.33316                       0.99443901640936 176.835340091777 0.00985666377890287 49.1475260460333 0.00985666377890284 49.1475260460332 0.989487369254877 176.458332348858 
15.3332                        0.994398251937609 176.834652211251 0.00990744862878005 48.930858260547  0.00990744862878003 48.930858260547  0.989397284570366 176.456814364934 
15.33324                       0.994356980734941 176.833975409541 0.00995861078263884 48.7119678845492 0.00995861078263881 48.7119678845492 0.989306079536659 176.45532077323  
15.33328                       0.994315197247255 176.833310198124 0.010010151573383 48.4908270208851 0.010010151573383 48.4908270208851 0.989213741834578 176.453852710393 
15.33332                       0.994272895945196 176.832657104097 0.0100620722406779 48.2674074638483 0.0100620722406779 48.2674074638483 0.989120259198171 176.452411348081 
15.33336                       0.994230071330122 176.832016670558 0.0101143739257277 48.041680700449  0.0101143739257277 48.041680700449  0.989025619427892 176.450997893815 
15.3334                        0.994186717940425 176.831389456986 0.0101670576658419 47.8136179120638 0.0101670576658419 47.8136179120638 0.988929810404581 176.449613591848 
15.33344                       0.994142830358208 176.830776039624 0.0102201243888021 47.5831899764142 0.0102201243888021 47.5831899764142 0.988832820104219 176.448259724043 
15.33348                       0.99409840321632 176.830177011868 0.0102735749070237 47.3503674698932 0.0102735749070237 47.3503674698932 0.988734636613479 176.446937610753 
15.33352                       0.994053431205793 176.829592984656 0.01032740991149 47.1151206703382 0.01032740991149 47.1151206703381 0.988635248146181 176.445648611707 
15.33356                       0.994007909083651 176.829024586853 0.0103816299654874 46.8774195601191 0.0103816299654874 46.8774195601191 0.988534643060566 176.444394126905 
15.3336                        0.993961831681163 176.828472465653 0.0104362354980906 46.6372338297672 0.0104362354980905 46.6372338297672 0.988432809877556 176.443175597508 
15.33364                       0.993915193912503 176.827937286959 0.0104912267974392 46.3945328819626 0.0104912267974392 46.3945328819626 0.988329737299919 176.44199450674  
15.33368                       0.993867990783867 176.827419735784 0.010546604003764 46.1492858360692 0.010546604003764 46.1492858360692 0.988225414232464 176.44085238078  
15.33372                       0.993820217403037 176.826920516632 0.0106023671021889 45.9014615330953 0.0106023671021889 45.9014615330953 0.988119829803209 176.439750789658 
15.33376                       0.993771868989446 176.826440353894 0.010658515915264 45.6510285412959 0.010658515915264 45.6510285412959 0.988012973385688 176.438691348145 
15.3338                        0.993722940884715 176.825979992225 0.0107150500952767 45.3979551622033 0.0107150500952767 45.3979551622033 0.987904834622276 176.437675716637 
15.33384                       0.9936734285637  176.825540196928 0.0107719691162901 45.1422094373219 0.0107719691162901 45.1422094373219 0.987795403448704 176.436705602032 
15.33388                       0.993623327646091 176.825121754331 0.0108292722659304 44.8837591554073 0.0108292722659304 44.8837591554073 0.987684670119726 176.435782758596 
15.33392                       0.993572633908516 176.824725472151 0.0108869586369159 44.6225718603653 0.0108869586369159 44.6225718603653 0.987572625235997 176.434908988815 
15.33396                       0.99352134329723 176.824352179856 0.0109450271183136 44.3586148598526 0.0109450271183136 44.3586148598526 0.987459259772195 176.434086144229 
15.334                         0.993469451941379 176.824002729019 0.0110034763865328 44.0918552345539 0.0110034763865328 44.091855234554  0.987344565106435 176.433316126256 
15.33404                       0.993416956166836 176.823677993658 0.0110623048960453 43.8222598482006 0.0110623048960453 43.8222598482006 0.987228533050988 176.432600886979 
15.33408                       0.993363852510663 176.823378870566 0.0111215108698377 43.5497953583293 0.0111215108698377 43.5497953583293 0.987111155884379 176.431942429923 
15.33412                       0.993310137736188 176.823106279624 0.0111810922895808 43.2744282278713 0.0111810922895808 43.2744282278713 0.98699242638483 176.43134281079  
15.33416                       0.99325580884872 176.822861164107 0.0112410468855285 42.9961247375488 0.0112410468855285 42.9961247375488 0.986872337865181 176.430804138168 
15.3342                        0.993200863111914 176.822644490961 0.0113013721261371 42.7148509991498 0.0113013721261371 42.7148509991499 0.986750884209228 176.430328574201 
15.33424                       0.993145298064807 176.822457251067 0.0113620652074131 42.4305729696787 0.0113620652074131 42.4305729696787 0.986628059909558 176.429918335216 
15.33428                       0.993089111539521 176.822300459491 0.0114231230419765 42.1432564664878 0.0114231230419764 42.1432564664878 0.986503860106915 176.429575692302 
15.33432                       0.993032301679665 176.822175155691 0.0114845422478608 41.852867183329  0.0114845422478608 41.852867183329  0.986378280631076 176.429302971844 
15.33436                       0.992974866959446 176.822082403722 0.0115463191370265 41.5593707074919 0.0115463191370264 41.5593707074919 0.98625131804335 176.429102555989 
15.3344                        0.992916806203479 176.822023292391 0.011608449703621 41.26273253792   0.011608449703621 41.26273253792   0.986122969680615 176.428976883062 
