! Variables:
!        a = 0.276in
!        d = 2.99in
!        iris_radius = 0.0705in
!        iris_width = 0.04in
!        rwg_a = 0.622in
!        rwg_b = 0.311in
!        rwg_length = 0.3in
!
!Data is not renormalized
# GHz S RI
! Terminal data exported
! Port[1] = Port1_rwg
! Port[2] = Port2_cwgI
10                             -0.9994102613    0.01261767602    0.005269401467   0.005065634618   0.005269401467   0.005065634618   -0.9790298065    -0.0009987918177 
10.045                         -0.9994003718    0.0131326762     0.005353833915   0.005156717959   0.005353833915   0.005156717959   -0.9791405989    -0.00106561356   
10.09                          -0.9993848662    0.01365228779    0.005435341883   0.00524159167    0.005435341884   0.00524159167    -0.9792587425    -0.001108265293  
10.135                         -0.9993658413    0.01416769901    0.005513694096   0.005320602427   0.005513694096   0.005320602427   -0.9793811957    -0.001129781527  
10.18                          -0.9993447555    0.01467420902    0.005588706857   0.0053940694     0.005588706857   0.0053940694     -0.9795054903    -0.001133341552  
10.225                         -0.9993226053    0.01516955025    0.005660235654   0.005462292569   0.005660235654   0.005462292568   -0.9796297385    -0.001122195437  
10.27                          -0.9993000568    0.0156528821     0.00572816941    0.005525557993   0.00572816941    0.005525557993   -0.9797526298    -0.001099587717  
10.315                         -0.999277542     0.01612418282    0.005792426462   0.005584140964   0.005792426463   0.005584140964   -0.9798734178    -0.001068680007  
10.36                          -0.9992553286    0.01658388112    0.005852951708   0.005638307641   0.005852951708   0.005638307641   -0.9799918956    -0.001032474017  
10.405                         -0.9992335703    0.01703263382    0.005909714483   0.005688315552   0.005909714483   0.005688315552   -0.9801083588    -0.0009937366912 
10.45                          -0.9992123432    0.017471193      0.005962706902   0.00573441326    0.005962706902   0.00573441326    -0.9802235569    -0.0009549294279 
10.495                         -0.9991916709    0.01790032838    0.006011942429   0.005776839348   0.006011942429   0.005776839348   -0.980338632     -0.0009181435854 
10.54                          -0.9991715433    0.01832078366    0.006057454534   0.005815820906   0.006057454534   0.005815820906   -0.9804550457    -0.0008850446942 
10.585                         -0.9991519295    0.01873325374    0.006099295264   0.00585157161    0.006099295264   0.00585157161    -0.9805744946    -0.0008568279961 
10.63                          -0.9991327861    0.01913837457    0.006137533657   0.005884289503   0.006137533657   0.005884289503   -0.9806988152    -0.000834188062  
10.675                         -0.999114064     0.01953672054    0.006172253872   0.005914154583   0.006172253872   0.005914154583   -0.9808298817    -0.0008173053075 
10.72                          -0.9990957124    0.01992880613    0.006203552971   0.00594132627    0.006203552971   0.00594132627    -0.9809694974    -0.0008058521693 
10.765                         -0.9990776814    0.02031508987    0.006231538288   0.005965940877   0.006231538288   0.005965940877   -0.9811192843    -0.0007990215123 
10.81                          -0.9990599235    0.0206959794     0.006256324314   0.005988109178   0.006256324314   0.005988109178   -0.9812805745    -0.0007955794402 
10.855                         -0.9990423954    0.02107183686    0.006278029087   0.006007914197   0.006278029087   0.006007914197   -0.9814543106    -0.0007939440385 
10.9                           -0.9990250577    0.02144298418    0.006296770056   0.006025409353   0.006296770056   0.006025409353   -0.9816409579    -0.0007922906267 
10.945                         -0.9990078755    0.0218097081     0.006312659434   0.006040617096   0.006312659434   0.006040617096   -0.9818404401    -0.0007886827618 
10.99                          -0.9989908183    0.02217226464    0.006325799088   0.006053528203   0.006325799088   0.006053528203   -0.9820521026    -0.0007812264664 
11.035                         -0.99897386      0.02253088323    0.006336275039   0.006064101872   0.006336275039   0.006064101872   -0.9822747145    -0.0007682428715 
11.08                          -0.9989569785    0.02288577025    0.006344151717   0.006072266797   0.006344151717   0.006072266797   -0.9825065177    -0.0007484516446 
11.125                         -0.9989401551    0.02323711212    0.006349466136   0.006077923345   0.006349466136   0.006077923345   -0.9827453301    -0.0007211541873 
11.17                          -0.998923375     0.02358507807    0.006352222256   0.006080946988   0.006352222256   0.006080946988   -0.98298871      -0.0006864016975 
11.215                         -0.9989066263    0.02392982245    0.006352385839   0.006081193036   0.006352385839   0.006081193036   -0.9832341865    -0.0006451289459 
11.26                          -0.9988898998    0.02427148672    0.006349880194   0.006078502694   0.006349880194   0.006078502694   -0.9834795516    -0.0005992302928 
11.305                         -0.9988731891    0.02461020122    0.006344583278   0.006072710336   0.006344583278   0.006072710336   -0.9837232087    -0.0005515506105 
11.35                          -0.9988564902    0.02494608664    0.006336326662   0.006063651736   0.006336326662   0.006063651736   -0.9839645571    -0.0005057611631 
11.395                         -0.9988398011    0.02527925537    0.006324896925   0.006051172812   0.006324896925   0.006051172812   -0.9842043813    -0.0004660903999 
11.44                          -0.998823122     0.0256098126     0.00631004       0.006035138151   0.00631004       0.006035138151   -0.9844451968    -0.0004368837996 
11.485                         -0.998806455     0.02593785738    0.006291468929   0.006015438301   0.006291468929   0.006015438301   -0.9846914859    -0.0004219778142 
11.53                          -0.9987898037    0.02626348362    0.006268875221   0.005991994374   0.006268875221   0.005991994374   -0.9849497332    -0.0004238937916 
11.575                         -0.9987731738    0.0265867809     0.006241943665   0.005964758159   0.006241943665   0.005964758159   -0.9852281546    -0.0004428923339 
11.62                          -0.9987565723    0.02690783549    0.006210369769   0.005933705463   0.006210369769   0.005933705463   -0.9855359996    -0.0004759810063 
11.665                         -0.9987400077    0.02722673117    0.006173878047   0.005898820128   0.006173878047   0.005898820128   -0.9858823155    -0.0005160420279 
11.71                          -0.9987234895    0.02754355028    0.006132238038   0.005860066076   0.006132238038   0.005860066076   -0.9862740995    -0.00055134202   
11.755                         -0.998707028     0.02785837471    0.006085273127   0.005817345142   0.006085273127   0.005817345142   -0.9867138643    -0.0005657964321 
11.8                           -0.9986906331    0.02817128691    0.0060328551     0.005770439657   0.0060328551     0.005770439657   -0.9871968298    -0.0005404656803 
11.845                         -0.9986743137    0.02848237091    0.005974875035   0.005718941252   0.005974875035   0.005718941252   -0.9877082621    -0.0004568099827 
11.89                          -0.9986580751    0.02879171291    0.005911179221   0.005662171616   0.005911179221   0.005662171616   -0.9882219548    -0.0003021308239 
11.935                         -0.9986419172    0.02909940127    0.005841458373   0.0055991076     0.005841458373   0.0055991076     -0.9887014543    -7.721287903E-05 
11.98                          -0.9986258313    0.02940552524    0.005765081555   0.005528332102   0.005765081555   0.005528332102   -0.9891062788    0.0001948100303  
12.025                         -0.9986097978    0.02971017179    0.005680876086   0.005448042681   0.005680876086   0.005448042681   -0.989405661     0.0004612552151  
12.07                          -0.9985937843    0.03001342022    0.005586876324   0.005356157859   0.005586876324   0.005356157859   -0.9896013747    0.0006403885469  
12.115                         -0.9985777482    0.03031533473    0.005480103527   0.005250555906   0.005480103527   0.005250555906   -0.9897571252    0.0006397916422  
12.16                          -0.9985616445    0.03061595702    0.005356498886   0.005129437391   0.005356498886   0.005129437391   -0.9900216461    0.0004057775145  
12.205                         -0.9985454411    0.03091530321    0.005211195845   0.00499166753    0.005211195845   0.00499166753    -0.9906123505    1.150456806E-05  
12.25                          -0.9985291411    0.0312133718     0.005039298381   0.004836631598   0.005039298381   0.004836631598   -0.9916978763    -0.0002418542436 
12.295                         -0.9985128075    0.03151017335    0.004836933325   0.004662514135   0.004836933325   0.004662514135   -0.9931127968    0.0001649843146  
12.34                          -0.9984965729    0.03180579925    0.004600764479   0.004461093879   0.004600764479   0.004461093879   -0.9939916555    0.001534853217   
12.385                         -0.9984805726    0.03210054513    0.004319618069   0.004207476044   0.004319618069   0.004207476044   -0.9930930366    0.002746934775   
12.43                          -0.9984646486    0.03239497447    0.00394241526    0.003851319312   0.00394241526    0.003851319312   -0.9919154455    0.0007900241587  
12.475                         -0.9984480788    0.03268937971    0.003313220399   0.003345486692   0.003313220399   0.003345486692   -0.9963931228    8.492576469E-05  
12.52                          -0.9984304468    0.03298534155    0.001648679911   0.002503451743   0.001648679911   0.002503451743   -0.9986776197    0.0005913405441  
12.565                         -0.9984060201    0.03327566368    0.0003638366266  0.004478148195   0.0003638366264  0.004478148195   -0.9928809812    -0.003006188282  
12.61                          -0.998385555     0.03356260465    0.0002529584094  0.005438566742   0.0002529584093  0.005438566742   -1.003098109     0.001407348509   
12.655                         -0.998365844     0.03384842265    0.0002504867372  0.006105287217   0.0002504867373  0.006105287217   -1.001508809     0.006337442175   
12.7                           -0.9983466222    0.03413312568    0.0002624654348  0.006614494021   0.0002624654348  0.006614494021   -0.9999785683    0.007416549675   
12.745                         -0.9983277358    0.03441682326    0.0002731790239  0.007039244314   0.0002731790239  0.007039244314   -0.9995547897    0.007885708522   
12.79                          -0.9983090772    0.03469957705    0.000282978192   0.007411393972   0.000282978192   0.007411393972   -0.999510617     0.008468041917   
12.835                         -0.9982905776    0.03498142444    0.0002927285078  0.007746573684   0.0002927285078  0.007746573684   -0.9995161211    0.009134653832   
12.88                          -0.9982721932    0.03526239422    0.0003026653148  0.008053874335   0.0003026653148  0.008053874335   -0.9995014147    0.009803203331   
12.925                         -0.9982538947    0.03554251236    0.0003127557331  0.008339273614   0.0003127557331  0.008339273614   -0.9994711989    0.01043982506    
12.97                          -0.9982356619    0.03582180379    0.0003229189933  0.008606994284   0.0003229189933  0.008606994284   -0.9994375612    0.01104077006    
13.015                         -0.9982174796    0.03610029293    0.0003330943421  0.008860147173   0.0003330943421  0.008860147173   -0.9994064587    0.01161188638    
13.06                          -0.9981993364    0.03637800363    0.0003432483748  0.009101089331   0.0003432483748  0.009101089331   -0.9993789736    0.01215951249    
13.105                         -0.9981812231    0.03665495922    0.0003533668927  0.00933164656    0.0003533668927  0.00933164656    -0.9993542038    0.01268812731    
13.15                          -0.9981631321    0.03693118238    0.0003634463847  0.009553260468   0.0003634463847  0.009553260468   -0.9993309738    0.01320050957    
13.195                         -0.9981450572    0.03720669519    0.0003734883908  0.009767089052   0.0003734883908  0.009767089052   -0.999308457     0.01369841077    
13.24                          -0.998126993     0.03748151908    0.000383496435   0.009974077029   0.000383496435   0.009974077029   -0.9992862376    0.01418308681    
13.285                         -0.9981089349    0.03775567485    0.0003934745888  0.01017500588    0.0003934745888  0.01017500588    -0.9992641818    0.01465558988    
13.33                          -0.9980908788    0.03802918274    0.000403426905   0.01037053008    0.000403426905   0.01037053008    -0.9992422956    0.01511688717    
13.375                         -0.9980728212    0.03830206237    0.0004133572544  0.01056120369    0.0004133572544  0.01056120369    -0.9992206255    0.01556788826    
13.42                          -0.9980547589    0.03857433284    0.0004232693166  0.01074750031    0.0004232693166  0.01074750031    -0.9991992092    0.01600943766    
13.465                         -0.9980366888    0.03884601272    0.0004331666115  0.01092982818    0.0004331666115  0.01092982818    -0.9991780588    0.01644230191    
13.51                          -0.9980186085    0.0391171201     0.000443052526   0.01110854189    0.000443052526   0.01110854189    -0.9991571628    0.01686716296    
13.555                         -0.9980005154    0.03938767258    0.0004529303251  0.0112839515     0.0004529303251  0.0112839515     -0.9991364955    0.01728461958    
13.6                           -0.9979824073    0.0396576873     0.0004628031513  0.0114563298     0.0004628031513  0.0114563298     -0.9991160264    0.01769519489    
13.645                         -0.9979642822    0.03992718099    0.0004726740167  0.01162591812    0.0004726740167  0.01162591812    -0.9990957268    0.01809934692    
13.69                          -0.9979461382    0.04019616993    0.0004825457932  0.0117929311     0.0004825457932  0.0117929311     -0.9990755739    0.01849747986    
13.735                         -0.9979279733    0.04046467002    0.0004924212051  0.0119575605     0.0004924212051  0.0119575605     -0.9990555518    0.0188899542     
13.78                          -0.997909786     0.04073269677    0.0005023028256  0.01211997843    0.0005023028256  0.01211997843    -0.9990356505    0.01927709513    
13.825                         -0.9978915746    0.04100026531    0.0005121930769  0.01228033998    0.0005121930769  0.01228033998    -0.9990158647    0.01965919891    
13.87                          -0.9978733375    0.04126739042    0.0005220942348  0.01243878549    0.0005220942348  0.01243878549    -0.9989961912    0.02003653751    
13.915                         -0.9978550734    0.04153408653    0.0005320084357  0.01259544233    0.0005320084357  0.01259544233    -0.9989766281    0.02040936176    
13.96                          -0.9978367809    0.04180036772    0.0005419376858  0.01275042657    0.0005419376858  0.01275042657    -0.9989571726    0.0207779035     
14.005                         -0.9978184585    0.04206624779    0.0005518838718  0.01290384429    0.0005518838718  0.01290384429    -0.9989378212    0.02114237711    
14.05                          -0.9978001051    0.0423317402     0.0005618487712  0.01305579272    0.0005618487712  0.01305579272    -0.9989185688    0.02150298067    
14.095                         -0.9977817194    0.04259685811    0.000571834063   0.01320636124    0.000571834063   0.01320636124    -0.998899409     0.02185989695    
14.14                          -0.9977633001    0.04286161441    0.0005818413373  0.01335563225    0.0005818413373  0.01335563225    -0.9988803348    0.0222132945     
14.185                         -0.9977448462    0.04312602171    0.0005918721044  0.01350368186    0.0005918721044  0.01350368186    -0.9988613385    0.02256332866    
14.23                          -0.9977263566    0.04339009235    0.0006019278021  0.0136505806     0.0006019278021  0.0136505806     -0.998842413     0.02291014274    
14.275                         -0.99770783      0.0436538384     0.0006120098027  0.01379639391    0.0006120098027  0.01379639391    -0.9988235514    0.0232538692     
14.32                          -0.9976892656    0.04391727172    0.0006221194184  0.01394118268    0.0006221194184  0.01394118268    -0.9988047481    0.0235946309     
14.365                         -0.9976706621    0.04418040388    0.0006322579064  0.01408500369    0.0006322579064  0.01408500369    -0.9987859984    0.02393254228    
14.41                          -0.9976520187    0.04444324626    0.0006424264726  0.01422790993    0.0006424264726  0.01422790993    -0.9987672991    0.02426771051    
14.455                         -0.9976333343    0.04470581       0.0006526262748  0.014369951      0.0006526262748  0.014369951      -0.9987486481    0.0246002365     
14.5                           -0.997614608     0.04496810603    0.000662858426   0.01451117342    0.000662858426   0.01451117342    -0.998730044     0.02493021587    
14.545                         -0.9975958388    0.04523014508    0.0006731239963  0.01465162082    0.0006731239963  0.01465162082    -0.9987114866    0.02525773965    
14.59                          -0.9975770258    0.04549193765    0.0006834240152  0.01479133426    0.0006834240152  0.01479133426    -0.9986929758    0.02558289499    
14.635                         -0.9975581681    0.0457534941     0.000693759474   0.01493035241    0.000693759474   0.01493035241    -0.9986745119    0.02590576557    
14.68                          -0.9975392647    0.04601482455    0.0007041313272  0.01506871176    0.0007041313272  0.01506871176    -0.9986560946    0.026226432      
14.725                         -0.9975203148    0.04627593897    0.0007145404947  0.01520644678    0.0007145404947  0.01520644678    -0.9986377233    0.026544972      
14.77                          -0.9975013176    0.04653684715    0.0007249878639  0.01534359007    0.0007249878639  0.01534359007    -0.9986193969    0.02686146057    
14.815                         -0.997482272     0.04679755871    0.0007354742913  0.01548017254    0.0007354742913  0.01548017254    -0.9986011128    0.02717596998    
14.86                          -0.9974631773    0.04705808311    0.000746000605   0.0156162235     0.000746000605   0.0156162235     -0.9985828678    0.02748856982    
14.905                         -0.9974440327    0.04731842966    0.0007565676063  0.01575177081    0.0007565676063  0.01575177081    -0.9985646575    0.02779932687    
14.95                          -0.9974248373    0.0475786075     0.0007671760726  0.01588684094    0.0007671760726  0.01588684094    -0.9985464764    0.02810830507    
14.995                         -0.9974055903    0.04783862564    0.000777826759   0.01602145914    0.000777826759   0.01602145914    -0.9985283179    0.02841556541    
15.04                          -0.9973862909    0.04809849293    0.000788520401   0.01615564947    0.000788520401   0.01615564947    -0.9985101747    0.02872116591    
15.085                         -0.9973669382    0.04835821812    0.0007992577167  0.01628943489    0.0007992577167  0.01628943489    -0.9984920388    0.02902516148    
15.13                          -0.9973475314    0.04861780978    0.0008100394092  0.01642283736    0.0008100394092  0.01642283736    -0.9984739018    0.02932760401    
15.175                         -0.9973280699    0.04887727639    0.0008208661686  0.01655587789    0.0008208661686  0.01655587789    -0.9984557551    0.02962854232    
15.22                          -0.9973085526    0.04913662629    0.0008317386744  0.01668857661    0.0008317386744  0.01668857661    -0.9984375903    0.02992802225    
