! Touchstone file exported from HFSS 2024.2.0
!        File:           C:/Users/peter/Documents/Ansoft/Maybell_cavity/CavityFromMaybell.aedt
!        Generated:      02:15:14 PM Jun  2, 2025
!        Design:         LossyTransition
!        Project:        CavityFromMaybell
!        Setup:          Setup1
!        Solution:       Sweep
!
! Variables:
!        $epsr = 5.5
!        $tandel = 0.003
!        a = 0.35in
!        d = 3.5in
!        f0_ideal = 15.3934197621267GHz
!        iris_radius = 0.0705in
!        iris_width = 0.04in
!        rwg_a = 0.622in
!        rwg_b = 0.311in
!        rwg_length = 0.3in
!
!Data is not renormalized
# GHz S RI
! Terminal data exported
! Port[1] = Port1
! Port[2] = Port2
10                             -0.999351251871607 0.0126940295537214 8.99539078118716E-05 0.00266454329557881 8.99539078118719E-05 0.00266454329557881 -0.999717562128867 0.0033618662778796 
10.09                          -0.999300790410299 0.0137502108771473 9.55026812882959E-05 0.00317632204008789 9.55026812890986E-05 0.00317632204008812 -0.999135742208266 -0.000361074656171745 
10.18                          -0.999255477583768 0.0147762481372005 0.000104738348028107 0.00360892143290927 0.000104738348028859 0.00360892143290951 -0.999236833337823 0.00189146164687087 
10.27                          -0.999212134846485 0.015753848301809 0.000114504142231043 0.0039896651700018 0.000114504142231546 0.00398966517000197 -0.999360224304584 0.00421009025760527 
10.36                          -0.999169734769345 0.0166833397111044 0.000124293527258193 0.00433454499077906 0.000124293527258474 0.00433454499077918 -0.999428369621502 0.00589776416408128 
10.45                          -0.999127980522164 0.0175702311944222 0.00013404596080469 0.00465339352195444 0.000134045960804803 0.00465339352195449 -0.99945024773588 0.00706681254694885 
10.54                          -0.999086806416686 0.0184206857618561 0.000143776860017296 0.00495255211164045 0.000143776860017315 0.00495255211164047 -0.999443063559646 0.00790346423400656 
10.63                          -0.99904620405856 0.0192401469054753 0.000153506688502602 0.00523628918765355 0.000153506688502569 0.00523628918765354 -0.999419888635058 0.00854623069749239 
10.72                          -0.999006166491716 0.0200330695690734 0.000163249984390391 0.00550758984436259 0.000163249984390341 0.00550758984436258 -0.999389069298751 0.00908208450256731 
10.81                          -0.998966674579313 0.0208030084623519 0.000173016150635177 0.00576861481291774 0.000173016150635127 0.00576861481291773 -0.999355486996955 0.00956140547408579 
10.9                           -0.998927697406808 0.0215527929295113 0.000182811601315604 0.00602097762121862 0.000182811601315569 0.00602097762121861 -0.999321770039021 0.0100116030868286 
10.99                          -0.99888919631311 0.0222846961445268 0.000192641303421307 0.00626591764203502 0.000192641303421281 0.00626591764203501 -0.999289170885061 0.010446561747198 
11.08                          -0.998851128958726 0.0230005730054535 0.000202509627101521 0.00650441136015432 0.000202509627101512 0.00650441136015431 -0.9992581467847 0.0108726046073311 
11.17                          -0.99881345241629 0.0237019647814856 0.000212420735844272 0.00673724581566148 0.000212420735844276 0.00673724581566148 -0.99922872657412 0.0112920772259661 
11.26                          -0.998776125195591 0.0243901758328732 0.00022237872298244 0.00696506824593884 0.00022237872298245 0.00696506824593884 -0.999200733899247 0.0117054193724228 
11.35                          -0.998739108401409 0.0250663289370863 0.000232387627524688 0.00718842038154118 0.000232387627524705 0.00718842038154118 -0.999173917423121 0.0121123124498002 
11.44                          -0.998702366269186 0.0257314049656622 0.000242451403975312 0.00740776262987842 0.000242451403975327 0.00740776262987843 -0.999148022296747 0.0125122770792346 
11.53                          -0.998665866290534 0.0263862714056907 0.000252573883749548 0.00762349146318548 0.000252573883749568 0.00762349146318549 -0.99912282547935 0.0129049526502546 
11.62                          -0.998629579089445 0.0270317030478395 0.000262758744577659 0.00783595215658397 0.000262758744577668 0.00783595215658398 -0.999098149521177 0.0132901995625405 
11.71                          -0.998593478162482 0.0276683972190963 0.000273009493069179 0.00804544829089573 0.000273009493069187 0.00804544829089573 -0.999073864117326 0.0136681081213255 
11.8                           -0.998557539558502 0.0282969852291479 0.000283329460191234 0.00825224896882735 0.000283329460191239 0.00825224896882736 -0.999049881260047 0.0140389631477391 
11.89                          -0.998521741545663 0.0289180411860082 0.00029372180718188 0.00845659439056741 0.000293721807181881 0.00845659439056742 -0.999026147555184 0.0144031921282762 
11.98                          -0.998486064293957 0.029532088973541 0.000304189538830248 0.00865870023508789 0.000304189538830246 0.0086587002350879 -0.999002635812146 0.014761311947145 
12.07                          -0.998450489588389 0.0301396079307921 0.000314735521245754 0.00885876115955684 0.000314735521245753 0.00885876115955684 -0.998979337088974 0.0151138816683445 
12.16                          -0.998415000579298 0.0307410375989724 0.000325362501741635 0.00905695363827781 0.000325362501741628 0.00905695363827781 -0.998956253791442 0.0154614644419513 
12.25                          -0.998379581571007 0.0313367817832101 0.000336073129036561 0.00925343829993714 0.000336073129036555 0.00925343829993715 -0.998933394066538 0.01580459915298 
12.34                          -0.998344217846802 0.0319272120957224 0.000346869972517957 0.0094483618783143 0.000346869972517953 0.0094483618783143 -0.998910767517198 0.0161437811402004 
12.43                          -0.998308895526544 0.0325126710930876 0.000357755539767473 0.00964185886088895 0.000357755539767471 0.00964185886088895 -0.998888382144524 0.0164794507116636 
12.52                          -0.998273601452515 0.0330934750841968 0.000368732291911471 0.00983405289792212 0.000368732291911469 0.00983405289792212 -0.998866242362319 0.0168119879818384 
12.61                          -0.998238323098889 0.0336699166616986 0.000379802656633639 0.010025058018888 0.000379802656633642 0.010025058018888 -0.99884434790393 0.0171417125743988 
12.7                           -0.998203048500498 0.0342422669940579 0.000390969038883385 0.0102149796917515 0.000390969038883394 0.0102149796917515 -0.998822693439281 0.0174688868673861 
12.79                          -0.998167766196877 0.0348107779052869 0.000402233829448675 0.0104039157522638 0.000402233829448686 0.0104039157522638 -0.998801268730696 0.0177937216401911 
12.88                          -0.998132465188171 0.0353756837628262 0.000413599411646266 0.0105919572243117 0.000413599411646277 0.0105919572243118 -0.998780059173808 0.018116383177608 
12.97                          -0.998097134899917 0.035937203189961 0.000425068166428929 0.0107791890477946 0.000425068166428947 0.0107791890477946 -0.998759046590975 0.0184370010748769 
13.06                          -0.998061765154263 0.0364955406165028 0.000436642476227385 0.0109656907270875 0.000436642476227407 0.0109656907270875 -0.998738210166112 0.018755676158979 
13.15                          -0.998026346145653 0.0370508876798287 0.000448324727841312 0.0111515369105705 0.000448324727841333 0.0111515369105705 -0.998717527431008 0.0190724880908363 
13.24                          -0.997990868419424 0.0376034244873247 0.000460117314677344 0.011336797909745 0.000460117314677364 0.011336797909745 -0.998696975232562 0.0193875023399969 
13.33                          -0.997955322852108 0.0381533207505565 0.000472022638603689 0.0115215401649594 0.000472022638603715 0.0115215401649594 -0.998676530627901 0.0197007763283072 
13.42                          -0.997919700632575 0.0387007368009814 0.000484043111658401 0.0117058266636097 0.000484043111658426 0.0117058266636097 -0.998656171669609 0.0200123646244298 
13.51                          -0.997883993243391 0.0392458244966529 0.00049618115781181 0.0118897173157871 0.000496181157811834 0.0118897173157871 -0.998635878056513 0.0203223231388194 
13.6                           -0.997848192442003 0.0397887280289699 0.000508439214945523 0.0120732692916474 0.000508439214945549 0.0120732692916474 -0.99861563163651 0.0206307123213508 
13.69                          -0.99781229024151 0.0403295846381991 0.000520819737174178 0.0122565373242259 0.000520819737174191 0.0122565373242259 -0.998595416757007 0.0209375994037969 
13.78                          -0.997776278890932 0.0408685252461631 0.000533325197599644 0.0124395739809972 0.000533325197599665 0.0124395739809972 -0.998575220465963 0.0212430597582653 
13.87                          -0.997740150855016 0.0414056750141266 0.000545958091555948 0.0126224299071331 0.000545958091555963 0.0126224299071331 -0.998555032572207 0.0215471774631218 
13.96                          -0.997703898793627 0.0419411538335044 0.000558720940372037 0.0128051540431456 0.000558720940372041 0.0128051540431456 -0.99853484557814 0.0218500451807411 
14.05                          -0.997667515540936 0.0424750767566929 0.000571616295654593 0.0129877938193879 0.000571616295654597 0.0129877938193879 -0.998514654501006 0.0221517634585442 
14.14                          -0.997630994084498 0.0430075543748969 0.000584646744070438 0.0131703953297144 0.000584646744070441 0.0131703953297144 -0.998494456600996 0.0224524395671663 
14.23                          -0.997594327544549 0.0435386931494284 0.00059781491258983 0.0133530034864702 0.000597814912589827 0.0133530034864702 -0.998474251035683 0.0227521859882091 
14.32                          -0.997557509153578 0.0440685957025872 0.000611123474137766 0.0135356621588714 0.000611123474137754 0.0135356621588714 -0.998454038460581 0.0230511186597678 
14.41                          -0.997520532236511 0.0445973610738146 0.000624575153591116 0.0137184142967582 0.000624575153591106 0.0137184142967582 -0.998433820595457 0.023349355081611 
14.5                           -0.997483390191606 0.0451250849464462 0.000638172734052425 0.0139013020416406 0.000638172734052416 0.0139013020416406 -0.998413599775299 0.0236470123736537 
14.59                          -0.997446076472246 0.0456518598500158 0.000651919063330606 0.014084366826906 0.000651919063330586 0.014084366826906 -0.998393378503495 0.0239442053723901 
14.68                          -0.997408584569784 0.0461777753427046 0.000665817060560106 0.014267649469032 0.000665817060560088 0.014267649469032 -0.998373159023425 0.0242410448398079 
14.77                          -0.997370907997502 0.0467029181781715 0.000679869722896709 0.0144511902516201 0.000679869722896687 0.0144511902516201 -0.998352942922737 0.0245376358490426 
14.86                          -0.997333040275794 0.0472273724606832 0.000694080132237846 0.0146350290040595 0.000694080132237823 0.0146350290040595 -0.998332730782643 0.0248340764004003 
14.95                          -0.997294974918552 0.0477512197921643 0.000708451461929601 0.0148192051766275 0.000708451461929581 0.0148192051766275 -0.998312521882399 0.0251304563108451 
15.04                          -0.997256705420782 0.0482745394144163 0.00072298698343897 0.0150037579138389 0.000722986983438952 0.0150037579138388 -0.99829231396698 0.0254268564096623 
15.13                          -0.99721822524737 0.0487974083495891 0.000737690072992211 0.0151887261278717 0.000737690072992197 0.0151887261278717 -0.998272103083667 0.0257233480629718 
15.22                          -0.997179527822902 0.0493199015415992 0.000752564218204041 0.0153741485739193 0.000752564218204022 0.0153741485739193 -0.998251883491006 0.0260199930402071 
15.31                          -0.997140606522409 0.0498420920010244 0.000767613024750316 0.0155600639293436 0.0007676130247503 0.0155600639293436 -0.998231647641461 0.0263168437264212 
15.4                           -0.997101454662831 0.0503640509557113 0.000782840223169202 0.0157465108785445 0.000782840223169196 0.0157465108785445 -0.998211386236871 0.0266139436759305 
15.49                          -0.99706206549501 0.0508858480091485 0.000798249675909841 0.0159335282054994 0.000798249675909833 0.0159335282054994 -0.998191088353903 0.0269113284947024 
15.58                          -0.997022432195902 0.0514075513084214 0.00081384538478603 0.0161211548959766 0.000813845384786032 0.0161211548959766 -0.998170741634634 0.0272090270317075 
15.67                          -0.996982547860741 0.0519292277233646 0.00082963149903383 0.016309430251485 0.000829631499033839 0.016309430251485 -0.998150332535804 0.0275070628528173 
15.76                          -0.996942405494789 0.0524509430383707 0.000845612324216349 0.016498394017086 0.00084561232421636 0.0164983940170861 -0.998129846628511 0.0278054559648881 
15.85                          -0.996901998004289 0.0529727621581256 0.000861792332266503 0.0166880865252679 0.000861792332266523 0.0166880865252679 -0.998109268938819 0.0281042247524414 
15.94                          -0.996861318186205 0.0534947493283118 0.00087817617300813 0.0168785488581653 0.000878176173008146 0.0168785488581654 -0.998088584318427 0.0284033880847689 
16.03                          -0.996820358716301 0.0540169683723359 0.000894768687550245 0.0170698230305029 0.000894768687550263 0.0170698230305029 -0.998067777833463 0.0287029675474623 
16.12                          -0.996779112135047 0.0545394829447509 0.000911574924002493 0.0172619521957432 0.000911574924002514 0.0172619521957432 -0.998046835158686 0.0290029897491328 
16.21                          -0.996737570830876 0.0550623568021578 0.000928600156019584 0.0174549808780436 0.000928600156019601 0.0174549808780436 -0.998025742963632 0.0293034886515871 
16.3                           -0.996695727020187 0.0555856540920156 0.000945849904739642 0.0176489552327573 0.000945849904739659 0.0176489552327573 -0.998004489276783 0.029604507869814 
16.39                          -0.996653572723546 0.0561094396598543 0.000963329964744074 0.0178439233383666 0.000963329964744086 0.0178439233383666 -0.997983063813587 0.0299061028868861 
16.48                          -0.996611099737471 0.0566337793751197 0.000981046434727025 0.0180399355229097 0.000981046434727044 0.0180399355229097 -0.997961458254063 0.0302083431282495 
16.57                          -0.996568299601174 0.0571587404758871 0.000999005753625887 0.0182370447281569 0.000999005753625892 0.0182370447281569 -0.997939666455828 0.0305113138398106 
16.66                          -0.996525163557599 0.0576843919324777 0.00101721474302493 0.0184353069150146 0.00101721474302493 0.0184353069150147 -0.997917684588661 0.0308151177146462 
16.75                          -0.996481682508044 0.0582108048299941 0.00103568065670762 0.0186347815138895 0.00103568065670761 0.0186347815138895 -0.997895511177267 0.0311198762143304 
16.84                          -0.996437846959748 0.0587380527696412 0.00105441123829126 0.0188355319240374 0.00105441123829125 0.0188355319240374 -0.997873147039445 0.0314257305322909 
16.93                          -0.996393646965613 0.05926621228864 0.00107341478793548 0.0190376260662537 0.00107341478793546 0.0190376260662537 -0.997850595107757 0.0317328421486284 
17.02                          -0.996349072055428 0.0597953632984315 0.0010927002391705 0.0192411369936484 0.00109270023917047 0.0192411369936484 -0.997827860123735 0.0320413929283592 
17.11                          -0.996304111157784 0.0603255895408087 0.00111227724693994 0.0194461435656897 0.0011122772469399 0.0194461435656896 -0.997804948194788 0.0323515847178414 
17.2                           -0.996258752511887 0.0608569790615235 0.00113215628799698 0.0196527311912154 0.00113215628799694 0.0196527311912154 -0.997781866205241 0.0326636383974341 
17.29                          -0.996212983568585 0.0613896247008234 0.00115234877482925 0.0198609926467048 0.0011523487748292 0.0198609926467048 -0.997758621074294 0.0329777923520844 
17.38                          -0.996166790879692 0.0619236246003605 0.00117286718431602 0.020071028976791 0.00117286718431596 0.0200710289767909 -0.997735218855321 0.0332943003254434 
17.47                          -0.996120159974902 0.0624590827257517 0.00119372520233879 0.0202829504847979 0.00119372520233874 0.0202829504847979 -0.997711663672437 0.0336134286274236 
17.56                          -0.99607307522542 0.0629961094040729 0.00121493788557168 0.020496877822021 0.00121493788557163 0.020496877822021 -0.997687956492149 0.0339354526695903 
17.65                          -0.996025519693532 0.0635348218754886 0.00123652184166938 0.0207129431855555 0.00123652184166934 0.0207129431855555 -0.997664093729697 0.0342606528076295 
17.74                          -0.995977474967243 0.0640753448581464 0.00125849542904308 0.0209312916357546 0.00125849542904306 0.0209312916357545 -0.99764006569165 0.0345893094750852 
17.83                          -0.995928920979167 0.0646178111253867 0.00128087897736764 0.0211520825458839 0.00128087897736763 0.0211520825458838 -0.997615854858404 0.034921697597814 
17.92                          -0.995879835808842 0.0651623620942998 0.00130369502989203 0.0213754911982865 0.00130369502989204 0.0213754911982863 -0.997591434012318 0.0352580802840656 
18.01                          -0.995830195467594 0.0657091484245668 0.00132696860852231 0.0216017105434158 0.00132696860852235 0.0216017105434157 -0.997566764219402 0.0355987017905637 
18.1                           -0.995779973665158 0.0662583306264843 0.00135072750251027 0.0218309531405001 0.00135072750251033 0.0218309531405  -0.997541792674707 0.0359437797708493 
18.19                          -0.99572914155711 0.0668100796769999 0.0013750025813984 0.0220634533014259 0.0013750025813985 0.0220634533014258 -0.997516450423718 0.0362934968178943 
18.28                          -0.995677667472382 0.0673645776425433 0.00139982813263792 0.0222994694627671 0.00139982813263806 0.0222994694627669 -0.997490649974575 0.0366479913191184 
18.37                          -0.995625516619898 0.0679220183073747 0.00142524222399315 0.022539286814811 0.00142524222399333 0.0225392868148109 -0.997464282817691 0.037007347647964 
18.46                          -0.995572650773554 0.0684826078061238 0.00145128709046026 0.0227832202210955 0.00145128709046047 0.0227832202210953 -0.997437216872109 0.0373715857225163 
18.55                          -0.995519027934652 0.0690465652591257 0.00147800954493477 0.0230316174674736 0.00147800954493501 0.0230316174674734 -0.99740929387951 0.0377406499679183 
18.64                          -0.995464601970935 0.0696141234091285 0.00150546141123392 0.0232848628862801 0.00150546141123418 0.02328486288628 -0.997380326769166 0.0381143977257503 
18.73                          -0.995409322231421 0.0701855292578619 0.00153369997727615 0.0235433814089632 0.0015336999772764 0.023543381408963 -0.997350097018705 0.0384925871599942 
18.82                          -0.99535313313611 0.0707610447009215 0.00156278846519324 0.0238076431098505 0.00156278846519345 0.0238076431098504 -0.997318352037286 0.0388748647158226 
18.91                          -0.995295973739816 0.0713409471593668 0.00159279651382803 0.0240781683148599 0.00159279651382816 0.0240781683148598 -0.997284802599225 0.0392607521938512 
19                             -0.995237777269187 0.071925530206368 0.00162380066736884 0.0243555333623304 0.00162380066736884 0.0243555333623304 -0.997249120357061 0.039649633509137 
