! Touchstone file exported from HFSS 2024.2.0
!        File:           C:/Users/peter/Documents/Ansoft/Maybell_cavity/CavityFromMaybell.aedt
!        Generated:      01:52:41 PM Jun  1, 2025
!        Design:         LossyTransition
!        Project:        CavityFromMaybell
!        Setup:          Setup1
!        Solution:       Sweep
!
! Variables:
!        $epsr = 5.5
!        $tandel = 0.003
!        a = 0.35in
!        d = 3.5in
!        f0_ideal = 15.3934197621267GHz
!        iris_radius = 0.0705in
!        iris_width = 0.04in
!        rwg_a = 0.622in
!        rwg_b = 0.311in
!        rwg_length = 0.3in
!
!Data is not renormalized
# GHz S RI
! Terminal data exported
! Port[1] = Port1
! Port[2] = Port2
14                             -0.997685961945526 0.0421629297480467 0.000565226899451313 0.01287871334515 0.000565226899451295 0.01287871334515 -0.998523767649715 0.0219691853184322 
14.02                          -0.99767799176978 0.0422814592043889 0.000568086331087866 0.0129192732820999 0.000568086331087851 0.0129192732821  -0.998520552232885 0.0220359424841384 
14.04                          -0.997669991953319 0.0423999267400013 0.000570954065921405 0.0129598306184978 0.000570954065921386 0.0129598306184978 -0.99851709474788 0.022102720287121 
14.06                          -0.99766196495377 0.0425183322097479 0.000573829954483021 0.0130003858521139 0.000573829954483009 0.0130003858521139 -0.998513421719839 0.0221695110494687 
14.08                          -0.997653913044915 0.0426366755721371 0.000576713859315033 0.0130409394789329 0.000576713859315017 0.0130409394789329 -0.998509557787487 0.0222363078949949 
14.1                           -0.997645838325449 0.0427549568824141 0.000579605654502359 0.0130814919930662 0.000579605654502349 0.0130814919930662 -0.998505525787488 0.0223031046940839 
14.12                          -0.997637742727483 0.0428731762859712 0.000582505225211052 0.013122043886672 0.00058250522521104 0.013122043886672 -0.998501346836874 0.0223698960111858 
14.14                          -0.997629628024792 0.0429913340120589 0.000585412467234355 0.0131625956498841 0.000585412467234345 0.0131625956498841 -0.99849704041354 0.0224366770549244 
14.16                          -0.997621495840841 0.0431094303677991 0.000588327286546329 0.0132031477707484 0.000588327286546321 0.0132031477707484 -0.998492624434821 0.0225034436306923 
14.18                          -0.997613347656533 0.043227465732482 0.000591249598863279 0.013243700735168 0.00059124959886327 0.013243700735168 -0.998488115334101 0.0225701920956793 
14.2                           -0.99760518481776 0.0433454405521369 0.000594179329212994 0.0132842550268553 0.000594179329212987 0.0132842550268553 -0.998483528135526 0.0226369193162257 
14.22                          -0.997597008542694 0.0434633553343698 0.000597116411512075 0.0133248111272921 0.000597116411512067 0.0133248111272921 -0.99847887652674 0.0227036226274486 
14.24                          -0.997588819928853 0.0435812106434569 0.00060006078815141 0.0133653695156967 0.000600060788151403 0.0133653695156967 -0.998474172929707 0.0227702997950393 
14.26                          -0.99758061995996 0.0436990070956922 0.00060301240958999 0.0134059306689981 0.000603012409589985 0.0134059306689981 -0.998469428569602 0.0228369489791723 
14.28                          -0.99757240951254 0.0438167453549663 0.000605971233956989 0.0134464950618173 0.000605971233956986 0.0134464950618173 -0.998464653541752 0.0229035687004296 
14.3                           -0.997564189362348 0.0439344261285761 0.000608937226662478 0.0134870631664551 0.000608937226662476 0.0134870631664551 -0.998459856876687 0.0229701578076963 
14.32                          -0.997555960190534 0.0440520501632685 0.000611910360016767 0.0135276354528861 0.000611910360016765 0.0135276354528861 -0.998455046603267 0.023036715447934 
14.34                          -0.997547722589631 0.044169618241481 0.000614890612858257 0.0135682123887593 0.000614890612858252 0.0135682123887593 -0.998450229809873 0.0231032410377536 
14.36                          -0.997539477069312 0.0442871311778034 0.000617877970190388 0.0136087944394046 0.000617877970190389 0.0136087944394046 -0.998445412703752 0.0231697342367636 
14.38                          -0.997531224061952 0.04440458981563 0.000620872422827297 0.0136493820678449 0.000620872422827295 0.0136493820678449 -0.998440600668434 0.0232361949225758 
14.4                           -0.997522963927995 0.044521995024007 0.000623873967048309 0.0136899757348142 0.000623873967048308 0.0136899757348142 -0.998435798319306 0.0233026231674087 
14.42                          -0.997514696961095 0.0446393476946666 0.000626882604261835 0.0137305758987803 0.000626882604261836 0.0137305758987803 -0.998431009557294 0.0233690192162844 
14.44                          -0.997506423393102 0.044756648739232 0.000629898340678051 0.0137711830159733 0.000629898340678049 0.0137711830159733 -0.998426237620726 0.0234353834666731 
14.46                          -0.99749814339882 0.0448738990865995 0.000632921186990768 0.013811797540419 0.000632921186990769 0.013811797540419 -0.998421485135328 0.0235017164495675 
14.48                          -0.99748985710059 0.0449910996804828 0.000635951158068775 0.0138524199239766 0.000635951158068776 0.0138524199239766 -0.998416754162433 0.0235680188119499 
14.5                           -0.9974815645727 0.0451082514771137 0.000638988272656141 0.013893050616381 0.00063898827265614 0.013893050616381 -0.998412046245365 0.0236342913005356 
14.52                          -0.997473265845585 0.0452253554430959 0.000642032553081977 0.01393369006529 0.000642032553081977 0.01393369006529 -0.998407362454042 0.023700534746779 
14.54                          -0.997464960909876 0.0453424125534037 0.000645084024979614 0.0139743387163341 0.000645084024979614 0.0139743387163341 -0.998402703427787 0.023766750053089 
14.56                          -0.997456649720249 0.0454594237895252 0.000648142717015032 0.0140149970131718 0.000648142717015031 0.0140149970131718 -0.998398069416438 0.0238329381801592 
14.58                          -0.997448332199122 0.0455763901377309 0.000651208660624812 0.0140556653975477 0.000651208660624812 0.0140556653975477 -0.998393460319658 0.0238991001354133 
14.6                           -0.997440008240162 0.0456933125874753 0.000654281889763472 0.0140963443093537 0.000654281889763472 0.0140963443093537 -0.998388875724563 0.0239652369624695 
14.62                          -0.997431677711644 0.0458101921299276 0.000657362440660295 0.014137034186694 0.000657362440660295 0.014137034186694 -0.998384314941657 0.0240313497316003 
14.64                          -0.997423340459626 0.0459270297566058 0.000660450351585669 0.0141777354659529 0.000660450351585669 0.0141777354659529 -0.998379777039077 0.0240974395311359 
14.66                          -0.997414996310985 0.0460438264581456 0.000663545662626849 0.0142184485818655 0.000663545662626849 0.0142184485818655 -0.998375260875161 0.0241635074597411 
14.68                          -0.997406645076273 0.046160583223153 0.000666648415473295 0.0142591739675902 0.000666648415473296 0.0142591739675902 -0.998370765129419 0.0242295546195606 
14.7                           -0.99739828655243 0.046277301037175 0.000669758653211395 0.0142999120547849 0.000669758653211395 0.0142999120547849 -0.99836628833186 0.0242955821101376 
14.72                          -0.997389920525348 0.046393980881771 0.000672876420128857 0.0143406632736841 0.000672876420128859 0.0143406632736841 -0.998361828890724 0.024361591023107 
14.74                          -0.997381546772276 0.0465106237336656 0.000676001761528415 0.0143814280531787 0.000676001761528417 0.0143814280531787 -0.998357385118657 0.0244275824375882 
14.76                          -0.997373165064078 0.046627230564004 0.000679134723551206 0.0144222068208972 0.000679134723551207 0.0144222068208972 -0.998352955257303 0.0244935574162623 
14.78                          -0.997364775167356 0.0467438023376867 0.000682275353009391 0.0144630000032885 0.00068227535300939 0.0144630000032885 -0.998348537500405 0.024559517002049 
14.8                           -0.997356376846427 0.0468603400127791 0.000685423697228438 0.0145038080257061 0.000685423697228438 0.0145038080257061 -0.998344130015365 0.0246254622154132 
14.82                          -0.997347969865151 0.0469768445400175 0.000688579803898719 0.0145446313124934 0.000688579803898719 0.0145446313124934 -0.998339730963354 0.0246913940521817 
14.84                          -0.997339553988646 0.0470933168623706 0.000691743720936516 0.0145854702870701 0.000691743720936516 0.0145854702870701 -0.998335338517921 0.0247573134818968 
14.86                          -0.997331128984849 0.0472097579146704 0.000694915496354427 0.0146263253720188 0.000694915496354427 0.0146263253720188 -0.998330950882195 0.0248232214466442 
14.88                          -0.997322694625954 0.0473261686233257 0.000698095178141076 0.0146671969891728 0.000698095178141075 0.0146671969891728 -0.998326566304668 0.024889118860302 
14.9                           -0.99731425068972 0.0474425499060845 0.000701282814150227 0.0147080855597038 0.000701282814150227 0.0147080855597038 -0.998322183093576 0.0249550066082213 
14.92                          -0.997305796960664 0.047558902671852 0.000704478451998972 0.0147489915042101 0.000704478451998974 0.0147489915042101 -0.998317799629932 0.0250208855472566 
14.94                          -0.99729733323111 0.0476752278205788 0.000707682138975336 0.0147899152428046 0.000707682138975336 0.0147899152428046 -0.998313414379191 0.0250867565061447 
14.96                          -0.997288859302137 0.0477915262431874 0.000710893921954928 0.0148308571952023 0.000710893921954928 0.0148308571952023 -0.998309025901642 0.0251526202861889 
14.98                          -0.997280374984398 0.0479077988215522 0.000714113847326676 0.0148718177808077 0.000714113847326676 0.0148718177808077 -0.998304632861434 0.0252184776622104 
15                             -0.997271880098832 0.048024046428532 0.000717341960927855 0.014912797418802 0.000717341960927855 0.014912797418802 -0.998300234034444 0.0252843293837619 
15.02                          -0.99726337447725 0.0481402699280353 0.000720578307987782 0.0149537965282285 0.000720578307987781 0.0149537965282285 -0.998295828314775 0.0253501761765315 
15.04                          -0.997254857962825 0.048256470175132 0.000723822933080837 0.0149948155280781 0.000723822933080836 0.0149948155280781 -0.998291414720131 0.0254160187439683 
15.06                          -0.997246330410465 0.0483726480161971 0.000727075880087916 0.0150358548373728 0.000727075880087916 0.0150358548373728 -0.998286992395971 0.0254818577690179 
15.08                          -0.997237791687075 0.0484888042890991 0.000730337192167256 0.0150769148752484 0.000730337192167256 0.0150769148752484 -0.998282560618475 0.0255476939160533 
15.1                           -0.997229241671739 0.0486049398234042 0.000733606911733407 0.0151179960610359 0.000733606911733405 0.0151179960610359 -0.99827811879639 0.0256135278328468 
15.12                          -0.99722068025576 0.0487210554406283 0.000736885080445437 0.0151590988143403 0.000736885080445437 0.0151590988143403 -0.99827366647175 0.0256793601526798 
15.14                          -0.997212107342642 0.0488371519544986 0.000740171739203341 0.0152002235551186 0.000740171739203342 0.0152002235551186 -0.998269203319505 0.025745191496475 
15.16                          -0.997203522847957 0.048953230171252 0.000743466928153105 0.0152413707037554 0.000743466928153106 0.0152413707037554 -0.998264729146098 0.0258110224749643 
15.18                          -0.997194926699103 0.0490692908899488 0.000746770686700292 0.015282540681136 0.000746770686700292 0.015282540681136 -0.998260243886969 0.0258768536908897 
15.2                           -0.997186318835003 0.0491853349028036 0.000750083053531808 0.0153237339087175 0.000750083053531808 0.0153237339087175 -0.998255747603069 0.0259426857411652 
15.22                          -0.997177699205687 0.0493013629955521 0.00075340406664619 0.0153649508085976 0.000753404066646191 0.0153649508085976 -0.998251240476385 0.0260085192190256 
15.24                          -0.997169067771786 0.0494173759478018 0.000756733763391755 0.0154061918035801 0.000756733763391754 0.0154061918035801 -0.998246722804481 0.0260743547161075 
15.26                          -0.997160424503965 0.0495333745334207 0.000760072180513094 0.0154474573172382 0.000760072180513094 0.0154474573172382 -0.998242194994125 0.0261401928244674 
15.28                          -0.997151769382239 0.049649359520933 0.000763419354205514 0.0154887477739744 0.000763419354205517 0.0154887477739744 -0.998237657553987 0.0262060341385027 
15.3                           -0.997143102395232 0.0497653316739155 0.000766775320177204 0.0155300635990776 0.000766775320177204 0.0155300635990776 -0.998233111086437 0.0262718792567496 
15.32                          -0.997134423539347 0.0498812917514097 0.00077014011371949 0.0155714052187763 0.00077014011371949 0.0155714052187763 -0.998228556278524 0.0263377287835775 
15.34                          -0.997125732817857 0.0499972405083362 0.000773513769784545 0.0156127730602894 0.000773513769784545 0.0156127730602894 -0.998223993892082 0.0264035833307125 
15.36                          -0.997117030239917 0.0501131786959099 0.000776896323070765 0.0156541675518721 0.000776896323070765 0.0156541675518721 -0.998219424753015 0.0264694435186038 
15.38                          -0.997108315819519 0.0502291070620633 0.000780287808115671 0.0156955891228592 0.000780287808115671 0.0156955891228592 -0.998214849739847 0.0265353099776189 
15.4                           -0.99709958957435 0.0503450263518673 0.000783688259396213 0.0157370382037039 0.000783688259396211 0.0157370382037039 -0.998210269771463 0.0266011833490391 
15.42                          -0.997090851524603 0.0504609373079504 0.000787097711436256 0.0157785152260123 0.000787097711436257 0.0157785152260123 -0.998205685794131 0.0266670642858439 
15.44                          -0.997082101691705 0.0505768406709151 0.000790516198921171 0.0158200206225751 0.000790516198921172 0.0158200206225751 -0.998201098767835 0.0267329534532611 
15.46                          -0.997073340096989 0.0506927371797486 0.000793943756819746 0.0158615548273931 0.000793943756819745 0.0158615548273931 -0.998196509651886 0.026798851529118 
15.48                          -0.997064566760292 0.0508086275722386 0.000797380420512653 0.0159031182756995 0.000797380420512654 0.0159031182756995 -0.99819191938991 0.0268647592038872 
15.5                           -0.997055781698498 0.0509245125853572 0.000800826225928004 0.0159447114039773 0.000800826225928004 0.0159447114039773 -0.998187328894169 0.0269306771805274 
15.52                          -0.997046984924023 0.0510403929556648 0.000804281209683396 0.0159863346499724 0.000804281209683397 0.0159863346499724 -0.998182739029317 0.0269966061740012 
15.54                          -0.997038176443227 0.0511562694196896 0.000807745409234655 0.0160279884527005 0.000807745409234655 0.0160279884527005 -0.998178150595509 0.0270625469105383 
15.56                          -0.997029356254792 0.051272142714295 0.000811218863031013 0.016069673252451 0.000811218863031014 0.016069673252451 -0.998173564311026 0.0271285001266038 
15.58                          -0.997020524348015 0.0513880135770394 0.000814701610676386 0.0161113894907841 0.000814701610676386 0.0161113894907841 -0.998168980794297 0.0271944665675312 
15.6                           -0.997011680701082 0.0515038827465191 0.000818193693097101 0.0161531376105238 0.000818193693097102 0.0161531376105238 -0.998164400545454 0.027260446985877 
15.62                          -0.99700282527926 0.0516197509627022 0.0008216951527156 0.0161949180557448 0.000821695152715599 0.0161949180557448 -0.998159823927397 0.0273264421394334 
15.64                          -0.99699395803306 0.0517356189672402 0.000825206033629833 0.0162367312717547 0.000825206033629832 0.0162367312717547 -0.998155251146366 0.0273924527888945 
15.66                          -0.996985078896335 0.0518514875037659 0.000828726381798849 0.0162785777050696 0.000828726381798849 0.0162785777050696 -0.998150682232122 0.0274584796952207 
15.68                          -0.996976187784353 0.0519673573181743 0.000832256245233564 0.0163204578033854 0.000832256245233563 0.0163204578033854 -0.998146117017688 0.0275245236166019 
15.7                           -0.996967284591798 0.0520832291588845 0.000835795674193493 0.0163623720155421 0.000835795674193492 0.0163623720155421 -0.998141555118703 0.0275905853051195 
15.72                          -0.996958369190753 0.052199103777079 0.000839344721388505 0.0164043207914825 0.000839344721388506 0.0164043207914825 -0.998136995912416 0.0276566655030075 
15.74                          -0.996949441428625 0.0523149819269315 0.000842903442186013 0.0164463045822055 0.000842903442186013 0.0164463045822055 -0.998132438516344 0.0277227649385613 
15.76                          -0.996940501126035 0.0524308643657928 0.000846471894823073 0.0164883238397125 0.000846471894823072 0.0164883238397125 -0.998127881766613 0.0277888843216699 
15.78                          -0.996931548074677 0.0525467518543872 0.000850050140623784 0.0165303790169479 0.000850050140623783 0.0165303790169479 -0.998123324195984 0.0278550243389806 
15.8                           -0.996922582035127 0.0526626451569511 0.000853638244220881 0.0165724705677333 0.000853638244220881 0.0165724705677333 -0.99811876401163 0.0279211856486454 
15.82                          -0.996913602734621 0.0527785450413711 0.000857236273782666 0.0166145989466955 0.000857236273782666 0.0166145989466955 -0.998114199072675 0.027987368874729 
15.84                          -0.996904609864803 0.0528944522792918 0.000860844301244021 0.0166567646091873 0.000860844301244021 0.0166567646091873 -0.998109626867474 0.0280535746011903 
15.86                          -0.996895603079446 0.0530103676461897 0.000864462402541824 0.0166989680112028 0.000864462402541823 0.0166989680112028 -0.998105044490735 0.028119803365473 
15.88                          -0.996886581992124 0.053126291921438 0.000868090657854717 0.0167412096092846 0.000868090657854718 0.0167412096092846 -0.998100448620412 0.0281860556517081 
15.9                           -0.996877546173878 0.0532422258883226 0.000871729151846814 0.0167834898604255 0.000871729151846813 0.0167834898604255 -0.998095835494502 0.0282523318835142 
15.92                          -0.996868495150827 0.0533581703340591 0.000875377973915423 0.0168258092219624 0.000875377973915423 0.0168258092219624 -0.998091200887644 0.0283186324163868 
15.94                          -0.996859428401776 0.0534741260497527 0.000879037218442312 0.0168681681514643 0.000879037218442312 0.0168681681514643 -0.998086540087673 0.0283849575296834 
15.96                          -0.996850345355797 0.0535900938303545 0.000882706985048895 0.0169105671066115 0.000882706985048896 0.0169105671066115 -0.998081847872024 0.028451307418217 
15.98                          -0.996841245389773 0.053706074474567 0.000886387378854435 0.0169530065450699 0.000886387378854435 0.0169530065450699 -0.998077118484116 0.0285176821834143 
16                             -0.996832127825913 0.053822068784745 0.00089007851073808 0.0169954869243559 0.00089007851073808 0.0169954869243559 -0.99807234560966 0.0285840818241076 
